 ****** PrimeSim HSPICE -- T-2022.06-SP1 linux64 (Aug 19 2022 7764626) ******
  Copyright (c) 1986 - 2023 by Synopsys, Inc. All Rights Reserved.
  This software and the associated documentation are proprietary
  to Synopsys, Inc. This software may only be used in accordance
  with the terms and conditions of a written license agreement with
  Synopsys, Inc. All other use, reproduction, or distribution of
  this software is strictly prohibited.
  Input File: sram_writelh_power.sp                                             
  Command line options: /opt/synopsys/hspice/T-2022.06-SP1/hspice/linux64/hspice sram_writelh_power.sp
  Start time: Sat Jul  1 11:37:30 2023
 lic:  
 lic: FLEXlm: SDK_12.11.1 
 lic: USER:   yc2367               HOSTNAME: beluga 
 lic: HOSTID: 54802750             PID:      1008 
 lic: Using FLEXlm license file: 
 lic: 27000@flex.ece.cornell.edu 
 lic: Checkout 1 hspice 
 lic: License/Maintenance for hspice will expire on 09-jan-2025/2022.06 
 lic: 1(in_use)/50(total) FLOATING license(s) on SERVER 27000@flex.ece.cornell.edu 
 lic:   
  **info** (sram_writelh_power.sp:18) DC voltage reset to initial transient source value in source 0:vdatain. new dc=0.9500D+00
  **warning** (sram_writelh_power.sp:18) pulse rise time is  < or = zero, reset to tstep
  **warning** (sram_writelh_power.sp:18) pulse fall time is  < or = zero, reset to tstep
  **warning** (nmos:xtgate1.mntgate (../basic_subcircuits.l:206)) Warning:  Acde = 0.245565 may be too small in BSIM4 model with w=2e-07 l=2.2e-08.
  **warning** (sram_writelh_power.sp:1720) Unable to find referenced node xprechargesa.n_1_2; Output variable ignored. Specify a valid node.
             
 Summary of Linear Res Distribution Info
 ---------------------------------------
 |Range          |Total     |Percent(%)|
 |---------------+----------+----------|
 |1e+00  ~  1e+03|512       |100.0000  |
 ---------------------------------------
              
             
 Summary of Linear Cap Distribution Info
 ---------------------------------------
 |Range          |Total     |Percent(%)|
 |---------------+----------+----------|
 |1e-17  ~  1e-16|1024      |100.0000  |
 ---------------------------------------
              
             
 Summary of Detailed RC Type Statistics
 -------------------------
 |Element Type|Number    |
 |------------+----------|
 |Constant Res|512       |
 |            |          |
 |Constant Cap|1024      |
 -------------------------
              
  

  **warning** the following singular supplies were terminated to 1 meg resistor 
          supply       node1            node2
(../process_data.l:43)vclmomtjn               0:vclmpmtj         defined in subckt 0                     0:0                defined in subckt 0               
(../process_data.l:38)vsupply                 0:vdd              defined in subckt 0                     0:0                defined in subckt 0               
(../process_data.l:42)vrefmtjn                0:vrefmtj          defined in subckt 0                     0:0                defined in subckt 0               
(../process_data.l:41)vsram                   0:vsram            defined in subckt 0                     0:0                defined in subckt 0               
(../process_data.l:44)vsram_n                 0:vsram_n          defined in subckt 0                     0:0                defined in subckt 0               
      
 **info** set option symb=1 internally to help for convergence.
 *****************************************************************
 ******  option summary
 ******
 runlvl  = 3         bypass  = 2.0000    
 **info** dc convergence successful at Newton-Raphson method 

   *** data name = sweep_data , index =     1 ***

 ******
 .title sram write power measurement circuit

 ****** transient analysis tnom=  25.000 temp=  25.000 ******
x

 time         voltage    voltage    voltage    voltage   
             tgate_l    tgate_r    n_bl_0     n_bl_64    
    0.        819.3235m   25.4554m  949.9989m  937.1808m 
    1.00000p  794.2301m   27.6676m  927.5914m  928.6848m 
    2.00000p  825.0587m   34.7548m  913.9948m  917.6271m 
    3.00000p  844.9687m   38.9365m  905.5980m  907.7138m 
    4.00000p  860.9552m   42.1689m  898.4713m  899.0028m 
    5.00000p  868.7262m   43.5753m  893.6496m  893.4245m 
    6.00000p  876.4972m   44.9817m  888.8278m  887.8461m 
    7.00000p  881.5328m   45.8038m  884.9998m  883.5714m 
    8.00000p  882.9998m   45.8636m  882.4682m  880.9972m 
    9.00000p  884.4668m   45.9233m  879.9366m  878.4230m 
   10.00000p  885.9338m   45.9831m  877.4049m  875.8488m 
   11.00000p  885.6630m   45.5566m  875.7456m  874.3414m 
   12.00000p  884.9060m   44.9942m  874.3303m  873.1325m 
   13.00000p  884.1490m   44.4317m  872.9150m  871.9236m 
   14.00000p  883.3919m   43.8693m  871.4997m  870.7147m 
   15.00000p  882.6349m   43.3068m  870.0845m  869.5058m 
   16.00000p  881.7743m   42.9737m  869.0112m  868.5795m 
   17.00000p  880.8493m   42.7832m  868.1506m  867.8289m 
   18.00000p  879.9243m   42.5927m  867.2901m  867.0782m 
   19.00000p  878.9992m   42.4022m  866.4295m  866.3276m 
   20.00000p  878.0742m   42.2117m  865.5689m  865.5770m 
   21.00000p  877.1492m   42.0211m  864.7083m  864.8264m 
   22.00000p  876.2242m   41.8306m  863.8478m  864.0758m 
   23.00000p  875.4932m   42.8422m  863.0266m  863.3452m 
   24.00000p  874.7883m   44.0155m  862.2106m  862.6174m 
   25.00000p  874.0834m   45.1887m  861.3947m  861.8895m 
   26.00000p  873.3786m   46.3620m  860.5788m  861.1616m 
   27.00000p  872.6737m   47.5352m  859.7629m  860.4338m 
   28.00000p  871.9688m   48.7085m  858.9470m  859.7059m 
   29.00000p  871.2639m   49.8817m  858.1311m  858.9781m 
   30.00000p  870.3858m   55.0473m  856.8361m  857.8133m 
   31.00000p  869.5062m   60.2443m  855.5374m  856.6450m 
   32.00000p  868.6267m   65.4412m  854.2387m  855.4768m 
   33.00000p  867.7472m   70.6382m  852.9399m  854.3085m 
   34.00000p  866.8676m   75.8352m  851.6412m  853.1403m 
   35.00000p  865.9881m   81.0322m  850.3425m  851.9721m 
   36.00000p  864.8247m   89.0602m  848.7303m  850.4956m 
   37.00000p  863.1916m  101.7714m  846.5998m  848.5093m 
   38.00000p  861.5585m  114.4825m  844.4692m  846.5230m 
   39.00000p  859.9254m  127.1937m  842.3386m  844.5366m 
   40.00000p  858.2923m  139.9049m  840.2081m  842.5503m 
   41.00000p  856.6592m  152.6161m  838.0775m  840.5640m 
   42.00000p  855.0261m  165.3273m  835.9469m  838.5777m 
   43.00000p  853.3930m  178.0384m  833.8164m  836.5914m 
   44.00000p  850.8728m  195.7090m  831.1345m  833.9915m 
   45.00000p  848.2551m  213.9245m  828.3921m  831.3242m 
   46.00000p  845.6374m  232.1400m  825.6497m  828.6569m 
   47.00000p  843.0197m  250.3555m  822.9073m  825.9895m 
   48.00000p  840.4020m  268.5710m  820.1648m  823.3222m 
   49.00000p  837.7843m  286.7865m  817.4224m  820.6549m 
   50.00000p  835.1666m  305.0020m  814.6800m  817.9876m 
   51.00000p  833.0168m  322.7776m  815.1595m  817.0227m 
   52.00000p  830.9402m  340.4918m  815.5960m  816.2146m 
   53.00000p  829.1345m  358.3477m  816.0533m  815.8806m 
   54.00000p  828.1429m  377.9034m  817.1935m  816.6003m 
   55.00000p  827.1513m  397.4590m  818.3336m  817.3200m 
   56.00000p  826.1597m  417.0147m  819.4738m  818.0397m 
   57.00000p  825.5816m  438.0349m  821.0062m  819.1645m 
   58.00000p  826.0124m  462.6282m  823.4957m  821.2780m 
   59.00000p  826.4433m  487.2216m  825.9853m  823.3915m 
   60.00000p  826.8741m  511.8150m  828.4748m  825.5051m 
   61.00000p  827.3340m  536.4161m  830.9800m  827.6388m 
   62.00000p  829.3007m  561.4200m  834.2906m  830.8187m 
   63.00000p  831.2673m  586.4239m  837.6012m  833.9985m 
   64.00000p  833.2340m  611.4278m  840.9117m  837.1784m 
   65.00000p  835.2006m  636.4317m  844.2223m  840.3582m 
   66.00000p  837.1673m  661.4356m  847.5329m  843.5381m 
   67.00000p  839.3027m  685.2735m  850.8758m  846.7722m 
   68.00000p  842.2994m  703.1595m  854.3839m  850.2829m 
   69.00000p  845.2962m  721.0455m  857.8919m  853.7937m 
   70.00000p  848.2929m  738.9316m  861.4000m  857.3044m 
   71.00000p  851.2896m  756.8176m  864.9080m  860.8152m 
   72.00000p  854.2864m  774.7037m  868.4161m  864.3260m 
   73.00000p  857.3875m  788.8679m  871.7626m  867.7149m 
   74.00000p  860.6127m  798.6149m  874.9176m  870.9591m 
   75.00000p  863.8378m  808.3620m  878.0726m  874.2034m 
   76.00000p  867.0629m  818.1091m  881.2276m  877.4476m 
   77.00000p  870.2881m  827.8561m  884.3826m  880.6919m 
   78.00000p  873.5132m  837.6032m  887.5375m  883.9361m 
   79.00000p  876.7383m  847.3503m  890.6925m  887.1804m 
   80.00000p  879.9634m  857.0973m  893.8475m  890.4246m 
   81.00000p  882.8137m  862.9749m  896.3869m  893.0734m 
   82.00000p  885.5387m  867.5594m  898.7206m  895.5231m 
   83.00000p  888.2636m  872.1439m  901.0542m  897.9728m 
   84.00000p  890.9886m  876.7284m  903.3879m  900.4226m 
   85.00000p  893.7135m  881.3129m  905.7216m  902.8723m 
   86.00000p  896.4385m  885.8974m  908.0553m  905.3220m 
   87.00000p  899.1635m  890.4819m  910.3889m  907.7718m 
   88.00000p  901.8884m  895.0664m  912.7226m  910.2215m 
   89.00000p  904.6134m  899.6510m  915.0563m  912.6713m 
   90.00000p  907.3383m  904.2355m  917.3900m  915.1210m 
   91.00000p  909.5082m  907.2958m  919.1630m  916.9990m 
   92.00000p  911.3253m  909.3875m  920.5797m  918.5136m 
   93.00000p  913.1423m  911.4792m  921.9964m  920.0283m 
   94.00000p  914.9594m  913.5709m  923.4132m  921.5430m 
   95.00000p  916.7765m  915.6627m  924.8299m  923.0576m 
   96.00000p  918.5936m  917.7544m  926.2466m  924.5723m 
   97.00000p  920.4107m  919.8461m  927.6633m  926.0869m 
   98.00000p  922.2277m  921.9378m  929.0801m  927.6016m 
   99.00000p  924.0448m  924.0296m  930.4968m  929.1162m 
  100.00000p  925.8619m  926.1213m  931.9135m  930.6309m 
  101.00000p  927.3867m  927.8217m  933.0927m  931.8913m 
  102.00000p  928.3569m  928.7795m  933.8211m  932.6693m 
  103.00000p  929.3272m  929.7373m  934.5496m  933.4473m 
  104.00000p  930.2974m  930.6950m  935.2780m  934.2253m 
  105.00000p  931.2676m  931.6528m  936.0064m  935.0033m 
  106.00000p  932.2379m  932.6106m  936.7349m  935.7813m 
  107.00000p  933.2081m  933.5684m  937.4633m  936.5593m 
  108.00000p  934.1783m  934.5262m  938.1917m  937.3373m 
  109.00000p  935.1485m  935.4840m  938.9202m  938.1153m 
  110.00000p  936.1188m  936.4418m  939.6486m  938.8933m 
  111.00000p  937.0890m  937.3996m  940.3770m  939.6713m 
  112.00000p  938.0592m  938.3574m  941.1055m  940.4493m 
  113.00000p  939.0295m  939.3151m  941.8339m  941.2273m 
  114.00000p  939.9997m  940.2729m  942.5623m  942.0053m 
  115.00000p  940.4452m  940.6953m  942.8931m  942.3615m 
  116.00000p  940.8345m  941.0603m  943.1813m  942.6725m 
  117.00000p  941.2238m  941.4252m  943.4695m  942.9835m 
  118.00000p  941.6131m  941.7902m  943.7576m  943.2945m 
  119.00000p  942.0025m  942.1552m  944.0458m  943.6055m 
  120.00000p  942.3918m  942.5202m  944.3340m  943.9165m 
  121.00000p  942.7811m  942.8852m  944.6222m  944.2275m 
  122.00000p  943.1704m  943.2502m  944.9103m  944.5385m 
  123.00000p  943.5597m  943.6151m  945.1985m  944.8495m 
  124.00000p  943.9490m  943.9801m  945.4867m  945.1605m 
  125.00000p  944.3383m  944.3451m  945.7749m  945.4715m 
  126.00000p  944.7277m  944.7101m  946.0630m  945.7825m 
  127.00000p  945.1170m  945.0751m  946.3512m  946.0934m 
  128.00000p  945.5063m  945.4401m  946.6394m  946.4044m 
  129.00000p  945.8956m  945.8051m  946.9276m  946.7154m 
  130.00000p  946.2849m  946.1700m  947.2157m  947.0264m 
  131.00000p  946.6742m  946.5350m  947.5039m  947.3374m 
  132.00000p  946.9189m  946.7657m  947.6853m  947.5324m 
  133.00000p  947.0233m  946.8662m  947.7632m  947.6149m 
  134.00000p  947.1278m  946.9667m  947.8411m  947.6974m 
  135.00000p  947.2322m  947.0672m  947.9189m  947.7799m 
  136.00000p  947.3366m  947.1677m  947.9968m  947.8624m 
  137.00000p  947.4410m  947.2682m  948.0747m  947.9448m 
  138.00000p  947.5454m  947.3687m  948.1526m  948.0273m 
  139.00000p  947.6498m  947.4692m  948.2304m  948.1098m 
  140.00000p  947.7543m  947.5697m  948.3083m  948.1923m 
  141.00000p  947.8587m  947.6702m  948.3862m  948.2748m 
  142.00000p  947.9631m  947.7707m  948.4641m  948.3572m 
  143.00000p  948.0675m  947.8711m  948.5419m  948.4397m 
  144.00000p  948.1719m  947.9716m  948.6198m  948.5222m 
  145.00000p  948.2763m  948.0721m  948.6977m  948.6047m 
  146.00000p  948.3807m  948.1726m  948.7755m  948.6872m 
  147.00000p  948.4852m  948.2731m  948.8534m  948.7696m 
  148.00000p  948.5896m  948.3736m  948.9313m  948.8521m 
  149.00000p  948.6940m  948.4741m  949.0092m  948.9346m 
  150.00000p  948.7984m  948.5746m  949.0870m  949.0171m 
  151.00000p  948.9028m  948.6751m  949.1649m  949.0996m 
  152.00000p  949.0072m  948.7756m  949.2428m  949.1820m 
  153.00000p  949.1117m  948.8760m  949.3207m  949.2645m 
  154.00000p  949.2161m  948.9765m  949.3985m  949.3470m 
  155.00000p  949.3205m  949.0770m  949.4764m  949.4295m 
  156.00000p  949.3556m  949.1119m  949.5027m  949.4582m 
  157.00000p  949.3742m  949.1311m  949.5167m  949.4740m 
  158.00000p  949.3928m  949.1502m  949.5307m  949.4899m 
  159.00000p  949.4113m  949.1694m  949.5448m  949.5058m 
  160.00000p  949.4299m  949.1886m  949.5588m  949.5216m 
  161.00000p  949.4485m  949.2078m  949.5728m  949.5375m 
  162.00000p  949.4671m  949.2270m  949.5868m  949.5533m 
  163.00000p  949.4857m  949.2462m  949.6008m  949.5692m 
  164.00000p  949.5042m  949.2654m  949.6148m  949.5850m 
  165.00000p  949.5228m  949.2846m  949.6288m  949.6009m 
  166.00000p  949.5414m  949.3037m  949.6429m  949.6168m 
  167.00000p  949.5600m  949.3229m  949.6569m  949.6326m 
  168.00000p  949.5785m  949.3421m  949.6709m  949.6485m 
  169.00000p  949.5971m  949.3613m  949.6849m  949.6643m 
  170.00000p  949.6157m  949.3805m  949.6989m  949.6802m 
  171.00000p  949.6343m  949.3997m  949.7129m  949.6961m 
  172.00000p  949.6529m  949.4189m  949.7269m  949.7119m 
  173.00000p  949.6714m  949.4381m  949.7410m  949.7278m 
  174.00000p  949.6900m  949.4572m  949.7550m  949.7436m 
  175.00000p  949.7086m  949.4764m  949.7690m  949.7595m 
  176.00000p  949.7272m  949.4956m  949.7830m  949.7754m 
  177.00000p  949.7458m  949.5148m  949.7970m  949.7912m 
  178.00000p  949.7643m  949.5340m  949.8110m  949.8071m 
  179.00000p  949.7829m  949.5532m  949.8250m  949.8229m 
  180.00000p  949.8015m  949.5724m  949.8391m  949.8388m 
  181.00000p  949.8201m  949.5916m  949.8531m  949.8547m 
  182.00000p  949.8387m  949.6107m  949.8671m  949.8705m 
  183.00000p  949.8572m  949.6299m  949.8811m  949.8864m 
  184.00000p  949.8758m  949.6491m  949.8951m  949.9022m 
  185.00000p  949.8944m  949.6683m  949.9091m  949.9181m 
  186.00000p  949.8993m  949.6749m  949.9131m  949.9219m 
  187.00000p  949.9007m  949.6781m  949.9144m  949.9225m 
  188.00000p  949.9020m  949.6813m  949.9157m  949.9230m 
  189.00000p  949.9033m  949.6845m  949.9170m  949.9236m 
  190.00000p  949.9046m  949.6877m  949.9184m  949.9242m 
  191.00000p  949.9059m  949.6910m  949.9197m  949.9248m 
  192.00000p  949.9072m  949.6942m  949.9210m  949.9253m 
  193.00000p  949.9085m  949.6974m  949.9223m  949.9259m 
  194.00000p  949.9098m  949.7006m  949.9236m  949.9265m 
  195.00000p  949.9111m  949.7038m  949.9249m  949.9270m 
  196.00000p  949.9125m  949.7070m  949.9262m  949.9276m 
  197.00000p  949.9138m  949.7102m  949.9275m  949.9282m 
  198.00000p  949.9151m  949.7134m  949.9288m  949.9288m 
  199.00000p  949.9164m  949.7166m  949.9301m  949.9293m 
  200.00000p  949.9177m  949.7199m  949.9314m  949.9299m 
  201.00000p  949.9190m  949.7231m  949.9328m  949.9305m 
  202.00000p  949.9203m  949.7263m  949.9341m  949.9310m 
  203.00000p  949.9216m  949.7295m  949.9354m  949.9316m 
  204.00000p  949.9229m  949.7327m  949.9367m  949.9322m 
  205.00000p  949.9243m  949.7359m  949.9380m  949.9328m 
  206.00000p  949.9256m  949.7391m  949.9393m  949.9333m 
  207.00000p  949.9269m  949.7423m  949.9406m  949.9339m 
  208.00000p  949.9282m  949.7456m  949.9419m  949.9345m 
  209.00000p  949.9295m  949.7488m  949.9432m  949.9350m 
  210.00000p  949.9308m  949.7520m  949.9445m  949.9356m 
  211.00000p  949.9321m  949.7552m  949.9458m  949.9362m 
  212.00000p  949.9334m  949.7584m  949.9471m  949.9368m 
  213.00000p  950.2462m  950.0923m  950.4436m  950.3576m 
  214.00000p  951.1912m  951.0976m  951.9454m  951.6317m 
  215.00000p  952.1362m  952.1030m  953.4472m  952.9058m 
  216.00000p  953.0812m  953.1083m  954.9490m  954.1799m 
  217.00000p  954.0262m  954.1136m  956.4508m  955.4540m 
  218.00000p  954.9712m  955.1189m  957.9526m  956.7281m 
  219.00000p  955.9207m  956.1289m  959.4342m  958.0029m 
  220.00000p  956.9228m  957.1918m  960.6839m  959.2860m 
  221.00000p  957.9249m  958.2548m  961.9336m  960.5691m 
  222.00000p  958.9996m  959.3846m  963.0758m  961.7411m 
  223.00000p  960.0847m  960.5240m  964.2024m  962.8971m 
  224.00000p  961.1699m  961.6634m  965.3291m  964.0530m 
  225.00000p  962.2550m  962.8029m  966.4557m  965.2090m 
  226.00000p  963.3401m  963.9423m  967.5824m  966.3650m 
  227.00000p  964.4253m  965.0817m  968.7090m  967.5210m 
  228.00000p  965.5104m  966.2212m  969.8357m  968.6769m 
  229.00000p  966.0922m  965.5026m  970.3100m  969.0588m 
  230.00000p  966.5597m  964.3622m  970.6361m  969.2650m 
  231.00000p  967.0272m  963.2218m  970.9623m  969.4712m 
  232.00000p  967.4947m  962.0814m  971.2885m  969.6773m 
  233.00000p  967.9623m  960.9410m  971.6147m  969.8835m 
  234.00000p  968.4298m  959.8006m  971.9408m  970.0896m 
  235.00000p  968.8973m  958.6602m  972.2670m  970.2958m 
  236.00000p  969.3648m  957.5198m  972.5932m  970.5020m 
  237.00000p  969.8323m  956.3794m  972.9194m  970.7081m 
  238.00000p  970.2998m  955.2390m  973.2455m  970.9143m 
  239.00000p  970.7674m  954.0986m  973.5717m  971.1205m 
  240.00000p  971.2349m  952.9582m  973.8979m  971.3266m 
  241.00000p  971.7024m  951.8178m  974.2241m  971.5328m 
  242.00000p  972.1699m  950.6774m  974.5502m  971.7390m 
  243.00000p  972.6374m  949.5370m  974.8764m  971.9451m 
  244.00000p  973.1049m  948.3966m  975.2026m  972.1513m 
  245.00000p  973.5725m  947.2562m  975.5288m  972.3575m 
  246.00000p  974.0400m  946.1158m  975.8549m  972.5636m 
  247.00000p  974.5075m  944.9754m  976.1811m  972.7698m 
  248.00000p  974.9750m  943.8350m  976.5073m  972.9759m 
  249.00000p  975.4425m  942.6946m  976.8335m  973.1821m 
  250.00000p  975.9100m  941.5542m  977.1597m  973.3883m 
  251.00000p  976.1665m  939.0417m  977.2778m  973.3430m 
  252.00000p  975.6999m  931.8297m  976.6832m  972.4366m 
  253.00000p  975.2334m  924.6177m  976.0886m  971.5302m 
  254.00000p  974.7668m  917.4058m  975.4941m  970.6238m 
  255.00000p  974.3003m  910.1938m  974.8995m  969.7174m 
  256.00000p  973.8337m  902.9818m  974.3049m  968.8111m 
  257.00000p  973.3672m  895.7698m  973.7104m  967.9047m 
  258.00000p  972.7670m  887.9833m  972.9433m  966.8585m 
  259.00000p  971.6046m  877.7797m  971.4507m  965.2241m 
  260.00000p  970.4422m  867.5760m  969.9581m  963.5897m 
  261.00000p  969.2798m  857.3723m  968.4655m  961.9553m 
  262.00000p  968.1174m  847.1687m  966.9729m  960.3209m 
  263.00000p  966.6292m  837.2674m  965.0359m  958.3448m 
  264.00000p  964.4793m  827.9799m  962.1967m  955.6748m 
  265.00000p  962.3295m  818.6924m  959.3574m  953.0048m 
  266.00000p  960.1796m  809.4050m  956.5182m  950.3348m 
  267.00000p  958.0298m  800.1175m  953.6789m  947.6648m 
  268.00000p  955.8626m  790.8299m  950.9078m  944.9923m 
  269.00000p  953.6789m  781.5670m  948.2556m  942.3371m 
  270.00000p  951.5329m  772.4479m  945.7678m  939.8019m 
  271.00000p  949.3869m  763.3289m  943.2801m  937.2667m 
  272.00000p  947.2410m  754.2098m  940.7924m  934.7315m 
  273.00000p  945.1023m  745.0974m  938.3102m  932.2036m 
  274.00000p  943.1195m  736.1281m  935.9497m  929.8329m 
  275.00000p  941.1367m  727.1589m  933.5892m  927.4622m 
