 ****** PrimeSim HSPICE -- T-2022.06-SP1 linux64 (Aug 19 2022 7764626) ******
  Copyright (c) 1986 - 2023 by Synopsys, Inc. All Rights Reserved.
  This software and the associated documentation are proprietary
  to Synopsys, Inc. This software may only be used in accordance
  with the terms and conditions of a written license agreement with
  Synopsys, Inc. All other use, reproduction, or distribution of
  this software is strictly prohibited.
  Input File: sram_writehh_power.sp                                             
  Command line options: /opt/synopsys/hspice/T-2022.06-SP1/hspice/linux64/hspice sram_writehh_power.sp
  Start time: Sat Jul  1 11:37:32 2023
 lic:  
 lic: FLEXlm: SDK_12.11.1 
 lic: USER:   yc2367               HOSTNAME: beluga 
 lic: HOSTID: 54802750             PID:      1059 
 lic: Using FLEXlm license file: 
 lic: 27000@flex.ece.cornell.edu 
 lic: Checkout 1 hspice 
 lic: License/Maintenance for hspice will expire on 09-jan-2025/2022.06 
 lic: 1(in_use)/50(total) FLOATING license(s) on SERVER 27000@flex.ece.cornell.edu 
 lic:   
  **info** (sram_writehh_power.sp:17) DC voltage reset to initial transient source value in source 0:vprecharge. new dc=0.9500D+00
  **warning** (nmos:xtgate1.mntgate (../basic_subcircuits.l:206)) Warning:  Acde = 0.245565 may be too small in BSIM4 model with w=2e-07 l=2.2e-08.
  **warning** (sram_writehh_power.sp:1719) Unable to find referenced node xprechargesa.n_1_2; Output variable ignored. Specify a valid node.
             
 Summary of Linear Res Distribution Info
 ---------------------------------------
 |Range          |Total     |Percent(%)|
 |---------------+----------+----------|
 |1e+00  ~  1e+03|512       |100.0000  |
 ---------------------------------------
              
             
 Summary of Linear Cap Distribution Info
 ---------------------------------------
 |Range          |Total     |Percent(%)|
 |---------------+----------+----------|
 |1e-17  ~  1e-16|1024      |100.0000  |
 ---------------------------------------
              
             
 Summary of Detailed RC Type Statistics
 -------------------------
 |Element Type|Number    |
 |------------+----------|
 |Constant Res|512       |
 |            |          |
 |Constant Cap|1024      |
 -------------------------
              
  

  **warning** the following singular supplies were terminated to 1 meg resistor 
          supply       node1            node2
(../process_data.l:43)vclmomtjn               0:vclmpmtj         defined in subckt 0                     0:0                defined in subckt 0               
(../process_data.l:38)vsupply                 0:vdd              defined in subckt 0                     0:0                defined in subckt 0               
(../process_data.l:42)vrefmtjn                0:vrefmtj          defined in subckt 0                     0:0                defined in subckt 0               
(../process_data.l:41)vsram                   0:vsram            defined in subckt 0                     0:0                defined in subckt 0               
(../process_data.l:44)vsram_n                 0:vsram_n          defined in subckt 0                     0:0                defined in subckt 0               
      
 **info** set option symb=1 internally to help for convergence.
 *****************************************************************
 ******  option summary
 ******
 runlvl  = 3         bypass  = 2.0000    
 **info** dc convergence successful at Newton-Raphson method 

   *** data name = sweep_data , index =     1 ***

 ******
 .title sram write power measurement circuit

 ****** transient analysis tnom=  25.000 temp=  25.000 ******
x

 time         voltage    voltage    voltage    voltage   
             tgate_l    tgate_r    n_bl_0     n_bl_64    
    0.        819.3235m   25.4554m  949.9989m  937.1808m 
    1.00000p  814.4151m   28.1626m  929.4591m  929.4649m 
    2.00000p  807.4842m   31.6439m  915.3381m  918.7805m 
    3.00000p  799.8579m   35.3471m  902.7590m  907.6350m 
    4.00000p  791.6167m   39.2387m  891.7474m  896.7570m 
    5.00000p  783.3755m   43.1304m  880.7358m  885.8790m 
    6.00000p  775.7359m   46.8466m  870.8593m  876.1677m 
    7.00000p  768.3364m   50.4930m  861.4357m  866.9220m 
    8.00000p  760.9369m   54.1393m  852.0122m  857.6763m 
    9.00000p  753.9505m   57.7044m  842.8354m  848.6498m 
   10.00000p  749.8338m   60.7056m  835.3729m  841.1468m 
   11.00000p  745.7171m   63.7068m  827.9104m  833.6437m 
   12.00000p  741.6004m   66.7081m  820.4479m  826.1407m 
   13.00000p  737.4838m   69.7093m  812.9854m  818.6376m 
   14.00000p  735.4576m   72.3801m  806.7833m  812.2948m 
   15.00000p  735.4012m   74.7395m  801.7687m  807.0453m 
   16.00000p  735.3448m   77.0989m  796.7541m  801.7957m 
   17.00000p  735.2884m   79.4584m  791.7396m  796.5462m 
   18.00000p  735.2320m   81.8178m  786.7250m  791.2966m 
   19.00000p  735.1756m   84.1772m  781.7104m  786.0471m 
   20.00000p  735.1192m   86.5367m  776.6959m  780.7975m 
   21.00000p  735.6483m   89.0504m  772.7952m  776.6390m 
   22.00000p  736.8079m   91.7304m  770.0943m  773.6555m 
   23.00000p  737.9674m   94.4103m  767.3933m  770.6720m 
   24.00000p  739.1270m   97.0902m  764.6924m  767.6885m 
   25.00000p  740.2866m   99.7702m  761.9914m  764.7050m 
   26.00000p  741.4462m  102.4501m  759.2905m  761.7215m 
   27.00000p  742.5840m  105.2334m  756.6828m  758.8252m 
   28.00000p  743.1586m  110.6931m  756.4894m  758.1860m 
   29.00000p  743.7332m  116.1529m  756.2960m  757.5469m 
   30.00000p  744.3078m  121.6126m  756.1026m  756.9077m 
   31.00000p  744.8824m  127.0723m  755.9092m  756.2686m 
   32.00000p  745.4570m  132.5321m  755.7158m  755.6295m 
   33.00000p  746.0316m  137.9918m  755.5224m  754.9903m 
   34.00000p  746.6062m  143.4515m  755.3290m  754.3512m 
   35.00000p  747.7960m  152.8288m  756.8411m  755.5153m 
   36.00000p  749.2221m  163.7115m  759.0086m  757.3724m 
   37.00000p  750.6482m  174.5942m  761.1761m  759.2296m 
   38.00000p  752.0743m  185.4769m  763.3436m  761.0867m 
   39.00000p  753.5005m  196.3596m  765.5112m  762.9439m 
   40.00000p  754.9266m  207.2423m  767.6787m  764.8010m 
   41.00000p  756.3527m  218.1251m  769.8462m  766.6581m 
   42.00000p  757.7789m  229.0078m  772.0137m  768.5153m 
   43.00000p  759.5967m  243.1935m  773.6670m  770.3549m 
   44.00000p  761.5574m  258.5849m  775.1325m  772.1882m 
   45.00000p  763.5182m  273.9762m  776.5981m  774.0215m 
   46.00000p  765.4789m  289.3675m  778.0636m  775.8547m 
   47.00000p  767.4397m  304.7589m  779.5291m  777.6880m 
   48.00000p  769.4004m  320.1502m  780.9947m  779.5213m 
   49.00000p  771.3612m  335.5416m  782.4602m  781.3545m 
   50.00000p  773.3220m  350.9329m  783.9258m  783.1878m 
   51.00000p  775.8577m  368.1436m  786.8772m  785.7422m 
   52.00000p  778.3935m  385.3542m  789.8286m  788.2966m 
   53.00000p  780.9293m  402.5649m  792.7800m  790.8511m 
   54.00000p  783.4650m  419.7755m  795.7314m  793.4055m 
   55.00000p  786.0008m  436.9862m  798.6829m  795.9599m 
   56.00000p  788.5546m  454.4763m  801.6594m  798.5486m 
   57.00000p  791.1995m  473.3782m  804.7626m  801.3103m 
   58.00000p  794.2203m  495.4436m  808.2983m  804.5808m 
   59.00000p  797.3791m  518.6714m  811.9929m  808.0382m 
   60.00000p  800.5379m  541.8992m  815.6875m  811.4956m 
   61.00000p  803.6966m  565.1270m  819.3821m  814.9530m 
   62.00000p  806.9556m  588.2604m  823.1438m  818.5025m 
   63.00000p  810.8164m  610.8272m  827.3081m  822.6059m 
   64.00000p  814.6772m  633.3940m  831.4724m  826.7093m 
   65.00000p  818.5380m  655.9608m  835.6368m  830.8127m 
   66.00000p  822.3987m  678.5276m  839.8011m  834.9161m 
   67.00000p  826.2636m  700.9935m  843.9636m  839.0193m 
   68.00000p  830.4289m  715.9788m  847.9898m  843.1105m 
   69.00000p  834.5943m  730.9641m  852.0161m  847.2017m 
   70.00000p  838.7596m  745.9494m  856.0423m  851.2929m 
   71.00000p  842.9250m  760.9347m  860.0685m  855.3840m 
   72.00000p  847.0903m  775.9200m  864.0947m  859.4752m 
   73.00000p  851.2242m  790.2084m  868.0586m  863.5110m 
   74.00000p  855.1017m  798.8269m  871.5157m  867.0955m 
   75.00000p  858.9791m  807.4453m  874.9728m  870.6800m 
   76.00000p  862.8566m  816.0637m  878.4299m  874.2645m 
   77.00000p  866.7341m  824.6821m  881.8870m  877.8490m 
   78.00000p  870.6116m  833.3005m  885.3441m  881.4336m 
   79.00000p  874.4891m  841.9190m  888.8013m  885.0181m 
   80.00000p  878.0873m  849.3496m  891.9496m  888.2987m 
   81.00000p  881.1611m  854.5507m  894.5185m  891.0088m 
   82.00000p  884.2349m  859.7518m  897.0873m  893.7190m 
   83.00000p  887.3088m  864.9529m  899.6562m  896.4291m 
   84.00000p  890.3826m  870.1541m  902.2251m  899.1393m 
   85.00000p  893.4564m  875.3552m  904.7939m  901.8494m 
   86.00000p  896.5303m  880.5563m  907.3628m  904.5596m 
   87.00000p  899.6041m  885.7574m  909.9316m  907.2697m 
   88.00000p  902.6779m  890.9585m  912.5005m  909.9799m 
   89.00000p  904.8282m  894.0169m  914.2487m  911.8354m 
   90.00000p  906.9341m  896.9721m  915.9574m  913.6498m 
   91.00000p  909.0400m  899.9274m  917.6661m  915.4642m 
   92.00000p  911.1458m  902.8826m  919.3748m  917.2786m 
   93.00000p  913.2517m  905.8379m  921.0835m  919.0930m 
   94.00000p  915.3576m  908.7932m  922.7922m  920.9073m 
   95.00000p  917.4634m  911.7484m  924.5009m  922.7217m 
   96.00000p  919.5693m  914.7037m  926.2096m  924.5361m 
   97.00000p  921.1449m  916.7811m  927.4739m  925.8833m 
   98.00000p  922.3527m  918.2496m  928.4299m  926.9065m 
   99.00000p  923.5605m  919.7182m  929.3860m  927.9296m 
  100.00000p  924.7682m  921.1867m  930.3420m  928.9527m 
  101.00000p  925.9760m  922.6553m  931.2980m  929.9759m 
  102.00000p  927.1838m  924.1238m  932.2540m  930.9990m 
  103.00000p  928.3916m  925.5923m  933.2100m  932.0222m 
  104.00000p  929.5993m  927.0609m  934.1660m  933.0453m 
  105.00000p  930.8071m  928.5294m  935.1220m  934.0685m 
  106.00000p  932.0149m  929.9980m  936.0781m  935.0916m 
  107.00000p  933.2227m  931.4665m  937.0341m  936.1148m 
  108.00000p  934.4305m  932.9350m  937.9901m  937.1379m 
  109.00000p  935.6382m  934.4036m  938.9461m  938.1610m 
  110.00000p  936.8460m  935.8721m  939.9021m  939.1842m 
  111.00000p  937.6396m  936.8031m  940.5276m  939.8533m 
  112.00000p  938.1703m  937.3931m  940.9433m  940.2978m 
  113.00000p  938.7010m  937.9830m  941.3590m  940.7423m 
  114.00000p  939.2317m  938.5730m  941.7747m  941.1868m 
  115.00000p  939.7624m  939.1629m  942.1904m  941.6313m 
  116.00000p  940.2931m  939.7529m  942.6061m  942.0757m 
  117.00000p  940.8238m  940.3428m  943.0218m  942.5202m 
  118.00000p  941.3545m  940.9328m  943.4375m  942.9647m 
  119.00000p  941.8852m  941.5227m  943.8532m  943.4092m 
  120.00000p  942.4159m  942.1127m  944.2690m  943.8537m 
  121.00000p  942.9466m  942.7026m  944.6847m  944.2982m 
  122.00000p  943.4773m  943.2926m  945.1004m  944.7427m 
  123.00000p  944.0080m  943.8825m  945.5161m  945.1871m 
  124.00000p  944.3113m  944.2145m  945.7520m  945.4405m 
  125.00000p  944.5136m  944.4319m  945.9082m  945.6090m 
  126.00000p  944.7160m  944.6494m  946.0643m  945.7776m 
  127.00000p  944.9184m  944.8668m  946.2205m  945.9461m 
  128.00000p  945.1207m  945.0843m  946.3766m  946.1146m 
  129.00000p  945.3231m  945.3018m  946.5328m  946.2832m 
  130.00000p  945.5255m  945.5192m  946.6890m  946.4517m 
  131.00000p  945.7278m  945.7367m  946.8451m  946.6203m 
  132.00000p  945.9302m  945.9541m  947.0013m  946.7888m 
  133.00000p  946.1326m  946.1716m  947.1575m  946.9574m 
  134.00000p  946.3349m  946.3891m  947.3136m  947.1259m 
  135.00000p  946.5373m  946.6065m  947.4698m  947.2944m 
  136.00000p  946.7397m  946.8240m  947.6259m  947.4630m 
  137.00000p  946.9420m  947.0414m  947.7821m  947.6315m 
  138.00000p  947.1444m  947.2589m  947.9383m  947.8001m 
  139.00000p  947.3467m  947.4764m  948.0944m  947.9686m 
  140.00000p  947.5491m  947.6938m  948.2506m  948.1372m 
  141.00000p  947.7515m  947.9113m  948.4067m  948.3057m 
  142.00000p  947.9538m  948.1287m  948.5629m  948.4742m 
  143.00000p  948.1562m  948.3462m  948.7191m  948.6428m 
  144.00000p  948.3586m  948.5637m  948.8752m  948.8113m 
  145.00000p  948.4139m  948.6220m  948.9174m  948.8558m 
  146.00000p  948.4593m  948.6695m  948.9518m  948.8919m 
  147.00000p  948.5047m  948.7170m  948.9862m  948.9280m 
  148.00000p  948.5501m  948.7646m  949.0206m  948.9641m 
  149.00000p  948.5955m  948.8121m  949.0550m  949.0002m 
  150.00000p  948.6409m  948.8597m  949.0894m  949.0362m 
  151.00000p  948.6863m  948.9072m  949.1238m  949.0723m 
  152.00000p  948.7317m  948.9548m  949.1582m  949.1084m 
  153.00000p  948.7771m  949.0023m  949.1927m  949.1445m 
  154.00000p  948.8225m  949.0498m  949.2271m  949.1806m 
  155.00000p  948.8679m  949.0974m  949.2615m  949.2167m 
  156.00000p  948.9133m  949.1449m  949.2959m  949.2528m 
  157.00000p  948.9587m  949.1925m  949.3303m  949.2889m 
  158.00000p  949.0041m  949.2400m  949.3647m  949.3250m 
  159.00000p  949.0495m  949.2875m  949.3991m  949.3610m 
  160.00000p  949.0949m  949.3351m  949.4336m  949.3971m 
  161.00000p  949.1402m  949.3826m  949.4680m  949.4332m 
  162.00000p  949.1856m  949.4302m  949.5024m  949.4693m 
  163.00000p  949.2310m  949.4777m  949.5368m  949.5054m 
  164.00000p  949.2764m  949.5253m  949.5712m  949.5415m 
  165.00000p  949.3218m  949.5728m  949.6056m  949.5776m 
  166.00000p  949.3672m  949.6203m  949.6400m  949.6137m 
  167.00000p  949.4126m  949.6679m  949.6744m  949.6497m 
  168.00000p  949.4368m  949.6918m  949.6923m  949.6688m 
  169.00000p  949.4457m  949.6986m  949.6981m  949.6755m 
  170.00000p  949.4546m  949.7055m  949.7040m  949.6823m 
  171.00000p  949.4635m  949.7123m  949.7099m  949.6890m 
  172.00000p  949.4724m  949.7191m  949.7158m  949.6958m 
  173.00000p  949.4812m  949.7260m  949.7217m  949.7025m 
  174.00000p  949.4901m  949.7328m  949.7276m  949.7092m 
  175.00000p  949.4990m  949.7397m  949.7334m  949.7160m 
  176.00000p  949.5079m  949.7465m  949.7393m  949.7227m 
  177.00000p  949.5168m  949.7534m  949.7452m  949.7295m 
  178.00000p  949.5257m  949.7602m  949.7511m  949.7362m 
  179.00000p  949.5346m  949.7671m  949.7570m  949.7430m 
  180.00000p  949.5435m  949.7739m  949.7629m  949.7497m 
  181.00000p  949.5524m  949.7808m  949.7687m  949.7565m 
  182.00000p  949.5613m  949.7876m  949.7746m  949.7632m 
  183.00000p  949.5702m  949.7945m  949.7805m  949.7700m 
  184.00000p  949.5791m  949.8013m  949.7864m  949.7767m 
  185.00000p  949.5879m  949.8082m  949.7923m  949.7835m 
  186.00000p  949.5968m  949.8150m  949.7982m  949.7902m 
  187.00000p  949.6057m  949.8219m  949.8040m  949.7970m 
  188.00000p  949.6146m  949.8287m  949.8099m  949.8037m 
  189.00000p  949.6235m  949.8356m  949.8158m  949.8105m 
  190.00000p  949.6324m  949.8424m  949.8217m  949.8172m 
  191.00000p  949.6413m  949.8493m  949.8276m  949.8239m 
  192.00000p  949.6502m  949.8561m  949.8335m  949.8307m 
  193.00000p  949.6591m  949.8630m  949.8393m  949.8374m 
  194.00000p  949.6680m  949.8698m  949.8452m  949.8442m 
  195.00000p  949.6769m  949.8766m  949.8511m  949.8509m 
  196.00000p  949.6858m  949.8835m  949.8570m  949.8577m 
  197.00000p  949.6946m  949.8903m  949.8629m  949.8644m 
  198.00000p  949.7035m  949.8972m  949.8687m  949.8712m 
  199.00000p  949.7124m  949.9040m  949.8746m  949.8779m 
  200.00000p  949.7213m  949.9109m  949.8805m  949.8847m 
  201.00000p  949.7302m  949.9177m  949.8864m  949.8914m 
  202.00000p  949.7391m  949.9246m  949.8923m  949.8982m 
  203.00000p  949.7480m  949.9314m  949.8982m  949.9049m 
  204.00000p  949.7569m  949.9383m  949.9040m  949.9117m 
  205.00000p  949.7593m  949.9395m  949.9058m  949.9127m 
  206.00000p  949.7610m  949.9401m  949.9070m  949.9131m 
  207.00000p  949.7626m  949.9407m  949.9082m  949.9134m 
  208.00000p  949.7643m  949.9413m  949.9094m  949.9138m 
  209.00000p  949.7659m  949.9418m  949.9106m  949.9142m 
  210.00000p  949.7676m  949.9424m  949.9118m  949.9145m 
  211.00000p  949.7692m  949.9430m  949.9130m  949.9149m 
  212.00000p  949.7709m  949.9435m  949.9142m  949.9152m 
  213.00000p  950.0811m  950.2505m  950.5201m  950.3670m 
  214.00000p  951.0178m  951.1796m  952.3539m  951.7351m 
  215.00000p  951.9546m  952.1086m  954.1878m  953.1033m 
  216.00000p  952.8913m  953.0376m  956.0216m  954.4715m 
  217.00000p  953.9068m  954.0349m  957.5458m  955.9164m 
  218.00000p  954.9956m  955.0871m  958.8907m  957.2958m 
  219.00000p  956.1533m  956.1900m  960.0798m  958.5976m 
  220.00000p  957.3110m  957.2928m  961.2688m  959.8993m 
  221.00000p  958.4688m  958.3957m  962.4579m  961.2011m 
  222.00000p  959.6265m  959.4986m  963.6470m  962.5028m 
  223.00000p  960.8140m  960.6652m  964.8358m  963.6602m 
  224.00000p  962.0034m  961.8359m  966.0246m  964.8084m 
  225.00000p  963.1928m  963.0067m  967.2134m  965.9565m 
  226.00000p  964.3822m  964.1774m  968.4022m  967.1047m 
  227.00000p  965.5716m  965.3481m  969.5910m  968.2528m 
  228.00000p  966.7610m  966.5189m  970.7798m  969.4010m 
  229.00000p  967.9504m  967.6896m  971.9686m  970.5491m 
  230.00000p  969.1399m  968.8603m  973.1574m  971.6973m 
  231.00000p  970.3293m  970.0311m  974.3462m  972.8454m 
  232.00000p  971.5187m  971.2018m  975.5350m  973.9936m 
  233.00000p  972.7081m  972.3725m  976.7238m  975.1417m 
  234.00000p  973.8975m  973.5432m  977.9126m  976.2899m 
  235.00000p  975.0869m  974.7140m  979.1014m  977.4380m 
  236.00000p  976.2763m  975.8847m  980.2902m  978.5862m 
  237.00000p  976.4803m  976.9905m  980.8733m  979.1322m 
  238.00000p  975.1624m  977.9958m  980.5209m  978.7481m 
  239.00000p  973.8444m  979.0012m  980.1685m  978.3641m 
  240.00000p  972.5265m  980.0066m  979.8161m  977.9801m 
  241.00000p  971.2085m  981.0120m  979.4638m  977.5960m 
  242.00000p  969.8906m  982.0174m  979.1114m  977.2120m 
  243.00000p  968.5726m  983.0228m  978.7590m  976.8279m 
  244.00000p  967.2547m  984.0282m  978.4066m  976.4439m 
  245.00000p  965.9367m  985.0336m  978.0542m  976.0598m 
  246.00000p  964.6188m  986.0390m  977.7018m  975.6758m 
  247.00000p  963.3008m  987.0444m  977.3494m  975.2918m 
  248.00000p  961.9829m  988.0497m  976.9970m  974.9077m 
  249.00000p  960.6650m  989.0551m  976.6446m  974.5237m 
  250.00000p  959.3470m  990.0605m  976.2923m  974.1396m 
  251.00000p  953.1035m  990.9267m  973.6826m  971.6169m 
  252.00000p  943.8185m  991.7069m  969.6791m  967.7734m 
  253.00000p  934.5336m  992.4871m  965.6755m  963.9300m 
  254.00000p  925.2486m  993.2673m  961.6720m  960.0865m 
  255.00000p  915.9636m  994.0475m  957.6685m  956.2431m 
  256.00000p  906.6786m  994.8277m  953.6650m  952.3997m 
  257.00000p  897.3936m  995.6079m  949.6614m  948.5562m 
  258.00000p  888.1086m  996.3881m  945.6579m  944.7128m 
  259.00000p  876.5472m  997.0484m  939.7717m  939.1213m 
  260.00000p  863.0898m  997.6087m  932.3176m  932.0739m 
  261.00000p  849.6325m  998.1690m  924.8634m  925.0265m 
  262.00000p  836.1752m  998.7293m  917.4093m  917.9792m 
  263.00000p  823.2029m  998.9867m  909.1836m  910.1314m 
  264.00000p  811.2154m  998.6294m  899.3912m  900.6585m 
  265.00000p  799.2278m  998.2720m  889.5989m  891.1856m 
  266.00000p  787.2403m  997.9147m  879.8065m  881.7128m 
  267.00000p  775.2527m  997.5573m  870.0142m  872.2399m 
  268.00000p  763.2210m  997.1659m  860.2807m  862.7519m 
  269.00000p  751.2763m  996.7537m  850.6200m  853.2042m 
  270.00000p  739.4204m  996.3331m  841.0057m  843.6087m 
  271.00000p  727.5646m  995.9126m  831.3915m  834.0133m 
  272.00000p  715.7087m  995.4920m  821.7772m  824.4179m 
  273.00000p  703.9423m  995.1178m  812.2832m  814.9305m 
  274.00000p  692.2265m  994.7697m  802.8570m  805.5043m 
  275.00000p  680.5106m  994.4216m  793.4309m  796.0781m 
  276.00000p  668.7948m  994.0735m  784.0048m  786.6519m 
  277.00000p  657.0790m  993.7254m  774.5787m  777.2257m 
  278.00000p  645.1127m  993.4005m  765.4079m  768.0215m 
