 ****** PrimeSim HSPICE -- T-2022.06-SP1 linux64 (Aug 19 2022 7764626) ******
  Copyright (c) 1986 - 2023 by Synopsys, Inc. All Rights Reserved.
  This software and the associated documentation are proprietary
  to Synopsys, Inc. This software may only be used in accordance
  with the terms and conditions of a written license agreement with
  Synopsys, Inc. All other use, reproduction, or distribution of
  this software is strictly prohibited.
  Input File: sram_writep_power.sp                                              
  Command line options: /opt/synopsys/hspice/T-2022.06-SP1/hspice/linux64/hspice sram_writep_power.sp
  Start time: Sat Jul  1 11:37:34 2023
 lic:  
 lic: FLEXlm: SDK_12.11.1 
 lic: USER:   yc2367               HOSTNAME: beluga 
 lic: HOSTID: 54802750             PID:      1068 
 lic: Using FLEXlm license file: 
 lic: 27000@flex.ece.cornell.edu 
 lic: Checkout 1 hspice 
 lic: License/Maintenance for hspice will expire on 09-jan-2025/2022.06 
 lic: 1(in_use)/50(total) FLOATING license(s) on SERVER 27000@flex.ece.cornell.edu 
 lic:   
  **info** (sram_writep_power.sp:18) DC voltage reset to initial transient source value in source 0:vdatain. new dc=0.9500D+00
  **warning** (sram_writep_power.sp:18) pulse rise time is  < or = zero, reset to tstep
  **warning** (sram_writep_power.sp:18) pulse fall time is  < or = zero, reset to tstep
  **warning** (nmos:xtgate1.mntgate (../basic_subcircuits.l:206)) Warning:  Acde = 0.245565 may be too small in BSIM4 model with w=2e-07 l=2.2e-08.
  **warning** (sram_writep_power.sp:1720) Unable to find referenced node xprechargesa.n_1_2; Output variable ignored. Specify a valid node.
             
 Summary of Linear Res Distribution Info
 ---------------------------------------
 |Range          |Total     |Percent(%)|
 |---------------+----------+----------|
 |1e+00  ~  1e+03|512       |100.0000  |
 ---------------------------------------
              
             
 Summary of Linear Cap Distribution Info
 ---------------------------------------
 |Range          |Total     |Percent(%)|
 |---------------+----------+----------|
 |1e-17  ~  1e-16|1024      |100.0000  |
 ---------------------------------------
              
             
 Summary of Detailed RC Type Statistics
 -------------------------
 |Element Type|Number    |
 |------------+----------|
 |Constant Res|512       |
 |            |          |
 |Constant Cap|1024      |
 -------------------------
              
  

  **warning** the following singular supplies were terminated to 1 meg resistor 
          supply       node1            node2
(../process_data.l:43)vclmomtjn               0:vclmpmtj         defined in subckt 0                     0:0                defined in subckt 0               
(../process_data.l:38)vsupply                 0:vdd              defined in subckt 0                     0:0                defined in subckt 0               
(../process_data.l:42)vrefmtjn                0:vrefmtj          defined in subckt 0                     0:0                defined in subckt 0               
(../process_data.l:41)vsram                   0:vsram            defined in subckt 0                     0:0                defined in subckt 0               
(../process_data.l:44)vsram_n                 0:vsram_n          defined in subckt 0                     0:0                defined in subckt 0               
      
 **info** set option symb=1 internally to help for convergence.
 *****************************************************************
 ******  option summary
 ******
 runlvl  = 3         bypass  = 2.0000    
 **info** dc convergence successful at Newton-Raphson method 

   *** data name = sweep_data , index =     1 ***

 ******
 .title sram write power measurement circuit

 ****** transient analysis tnom=  25.000 temp=  25.000 ******
x

 time         voltage    voltage    voltage    voltage   
             tgate_l    tgate_r    n_bl_0     n_bl_64    
    0.        949.9992m  434.0647n  949.9997m  937.1816m 
    1.00000p  898.1918m  477.2762u  937.8587m  932.9667m 
    2.00000p  902.0990m    6.9853m  929.4241m  927.1773m 
    3.00000p  904.1802m   11.7384m  923.5543m  921.4715m 
    4.00000p  905.8553m   16.1069m  918.0949m  915.9796m 
    5.00000p  905.9233m   19.0346m  914.0786m  912.0443m 
    6.00000p  905.9912m   21.9623m  910.0623m  908.1090m 
    7.00000p  905.8269m   24.7866m  906.3371m  904.4940m 
    8.00000p  904.7924m   27.2235m  903.7030m  902.0794m 
    9.00000p  903.7580m   29.6604m  901.0688m  899.6648m 
   10.00000p  902.7236m   32.0972m  898.4346m  897.2502m 
   11.00000p  901.4817m   34.4625m  896.2143m  895.2556m 
   12.00000p  900.0043m   36.7465m  894.4639m  893.7381m 
   13.00000p  898.5269m   39.0305m  892.7135m  892.2206m 
   14.00000p  897.0495m   41.3145m  890.9631m  890.7031m 
   15.00000p  895.5721m   43.5986m  889.2128m  889.1856m 
   16.00000p  894.1004m   45.6424m  887.5091m  887.7020m 
   17.00000p  892.6770m   45.6491m  886.2015m  886.5059m 
   18.00000p  891.2537m   45.6557m  884.8940m  885.3098m 
   19.00000p  889.8304m   45.6624m  883.5864m  884.1137m 
   20.00000p  888.4070m   45.6690m  882.2789m  882.9176m 
   21.00000p  886.9837m   45.6757m  880.9713m  881.7214m 
   22.00000p  885.5603m   45.6823m  879.6638m  880.5253m 
   23.00000p  884.1641m   45.9321m  878.2952m  879.2734m 
   24.00000p  882.7993m   46.4637m  876.8558m  877.9566m 
   25.00000p  881.4346m   46.9953m  875.4164m  876.6399m 
   26.00000p  880.0698m   47.5269m  873.9770m  875.3231m 
   27.00000p  878.7050m   48.0585m  872.5376m  874.0064m 
   28.00000p  877.3402m   48.5901m  871.0982m  872.6896m 
   29.00000p  875.7167m   52.6682m  869.1551m  870.8982m 
   30.00000p  874.0272m   57.6512m  867.0835m  868.9857m 
   31.00000p  872.3376m   62.6342m  865.0118m  867.0732m 
   32.00000p  870.6481m   67.6172m  862.9402m  865.1607m 
   33.00000p  868.9586m   72.6002m  860.8685m  863.2482m 
   34.00000p  867.2690m   77.5832m  858.7968m  861.3357m 
   35.00000p  865.4372m   84.1876m  856.5696m  859.2532m 
   36.00000p  863.1097m   96.4432m  853.7999m  856.5784m 
   37.00000p  860.7821m  108.6988m  851.0302m  853.9035m 
   38.00000p  858.4545m  120.9544m  848.2605m  851.2286m 
   39.00000p  856.1269m  133.2100m  845.4908m  848.5538m 
   40.00000p  853.7993m  145.4656m  842.7211m  845.8789m 
   41.00000p  851.4717m  157.7212m  839.9514m  843.2041m 
   42.00000p  849.1441m  169.9768m  837.1817m  840.5292m 
   43.00000p  846.7408m  183.2029m  834.3698m  837.7967m 
   44.00000p  843.9555m  201.3299m  831.3451m  834.7731m 
   45.00000p  841.1702m  219.4569m  828.3203m  831.7495m 
   46.00000p  838.3848m  237.5839m  825.2955m  828.7258m 
   47.00000p  835.5995m  255.7110m  822.2708m  825.7022m 
   48.00000p  832.8141m  273.8380m  819.2460m  822.6786m 
   49.00000p  830.0288m  291.9650m  816.2212m  819.6549m 
   50.00000p  827.2434m  310.0920m  813.1965m  816.6313m 
   51.00000p  826.5313m  327.5219m  814.2586m  817.0027m 
   52.00000p  825.8191m  344.9518m  815.3207m  817.3741m 
   53.00000p  825.1070m  362.3817m  816.3828m  817.7455m 
   54.00000p  824.3948m  379.8116m  817.4449m  818.1169m 
   55.00000p  823.6826m  397.2415m  818.5070m  818.4884m 
   56.00000p  823.0323m  415.0625m  819.6295m  818.9428m 
   57.00000p  822.5846m  434.1655m  820.9502m  819.6695m 
   58.00000p  823.0580m  457.3861m  823.1061m  821.3797m 
   59.00000p  823.7227m  481.4619m  825.4354m  823.2942m 
   60.00000p  824.3874m  505.5376m  827.7647m  825.2086m 
   61.00000p  825.0520m  529.6133m  830.0940m  827.1230m 
   62.00000p  826.2466m  553.6639m  832.7523m  829.4559m 
   63.00000p  828.5182m  577.6635m  836.0793m  832.6397m 
   64.00000p  830.7898m  601.6631m  839.4064m  835.8234m 
   65.00000p  833.0613m  625.6626m  842.7335m  839.0071m 
   66.00000p  835.3329m  649.6622m  846.0605m  842.1908m 
   67.00000p  837.6045m  673.6618m  849.3876m  845.3745m 
   68.00000p  839.8761m  697.6613m  852.7147m  848.5582m 
   69.00000p  842.6909m  716.8051m  856.1330m  851.9384m 
   70.00000p  845.9062m  732.3692m  859.6185m  855.4634m 
   71.00000p  849.1216m  747.9332m  863.1040m  858.9884m 
   72.00000p  852.3369m  763.4973m  866.5895m  862.5135m 
   73.00000p  855.5522m  779.0613m  870.0750m  866.0385m 
   74.00000p  858.7675m  794.6254m  873.5605m  869.5635m 
   75.00000p  861.9828m  810.1894m  877.0460m  873.0885m 
   76.00000p  865.1878m  818.6984m  880.0592m  876.1977m 
   77.00000p  868.3918m  826.4589m  883.0223m  879.2627m 
   78.00000p  871.5957m  834.2194m  885.9853m  882.3277m 
   79.00000p  874.7996m  841.9799m  888.9484m  885.3927m 
   80.00000p  878.0035m  849.7404m  891.9114m  888.4577m 
   81.00000p  881.2074m  857.5009m  894.8745m  891.5227m 
   82.00000p  884.4113m  865.2613m  897.8375m  894.5877m 
   83.00000p  887.6152m  873.0218m  900.8006m  897.6527m 
   84.00000p  890.4041m  878.4210m  903.2402m  900.2029m 
   85.00000p  892.8756m  882.0145m  905.2795m  902.3594m 
   86.00000p  895.3471m  885.6080m  907.3188m  904.5159m 
   87.00000p  897.8186m  889.2015m  909.3581m  906.6724m 
   88.00000p  900.2901m  892.7950m  911.3974m  908.8289m 
   89.00000p  902.7617m  896.3885m  913.4367m  910.9854m 
   90.00000p  905.2332m  899.9820m  915.4760m  913.1419m 
   91.00000p  907.7047m  903.5755m  917.5153m  915.2984m 
   92.00000p  910.1762m  907.1690m  919.5546m  917.4549m 
   93.00000p  912.6477m  910.7625m  921.5939m  919.6114m 
   94.00000p  915.1192m  914.3560m  923.6332m  921.7679m 
   95.00000p  916.8585m  916.4270m  924.9974m  923.2208m 
   96.00000p  918.3791m  918.0434m  926.1600m  924.4635m 
   97.00000p  919.8998m  919.6598m  927.3226m  925.7062m 
   98.00000p  921.4205m  921.2762m  928.4853m  926.9490m 
   99.00000p  922.9411m  922.8926m  929.6479m  928.1917m 
  100.00000p  924.4618m  924.5090m  930.8105m  929.4345m 
  101.00000p  925.9824m  926.1254m  931.9732m  930.6772m 
  102.00000p  927.5031m  927.7418m  933.1358m  931.9199m 
  103.00000p  929.0237m  929.3582m  934.2985m  933.1627m 
  104.00000p  930.5444m  930.9746m  935.4611m  934.4054m 
  105.00000p  931.9176m  932.4205m  936.5089m  935.5260m 
  106.00000p  932.6671m  933.1445m  937.0708m  936.1296m 
  107.00000p  933.4166m  933.8686m  937.6328m  936.7331m 
  108.00000p  934.1661m  934.5927m  938.1947m  937.3367m 
  109.00000p  934.9156m  935.3168m  938.7567m  937.9403m 
  110.00000p  935.6651m  936.0408m  939.3186m  938.5439m 
  111.00000p  936.4146m  936.7649m  939.8805m  939.1475m 
  112.00000p  937.1641m  937.4890m  940.4425m  939.7511m 
  113.00000p  937.9136m  938.2131m  941.0044m  940.3546m 
  114.00000p  938.6632m  938.9371m  941.5664m  940.9582m 
  115.00000p  939.4127m  939.6612m  942.1283m  941.5618m 
  116.00000p  940.1622m  940.3853m  942.6903m  942.1654m 
  117.00000p  940.9117m  941.1094m  943.2522m  942.7690m 
  118.00000p  941.6612m  941.8335m  943.8141m  943.3726m 
  119.00000p  942.4107m  942.5575m  944.3761m  943.9761m 
  120.00000p  943.0451m  943.1679m  944.8506m  944.4855m 
  121.00000p  943.3145m  943.4175m  945.0477m  944.6963m 
  122.00000p  943.5840m  943.6671m  945.2448m  944.9071m 
  123.00000p  943.8534m  943.9167m  945.4420m  945.1179m 
  124.00000p  944.1228m  944.1664m  945.6391m  945.3287m 
  125.00000p  944.3923m  944.4160m  945.8363m  945.5395m 
  126.00000p  944.6617m  944.6656m  946.0334m  945.7503m 
  127.00000p  944.9311m  944.9153m  946.2306m  945.9611m 
  128.00000p  945.2006m  945.1649m  946.4277m  946.1719m 
  129.00000p  945.4700m  945.4145m  946.6249m  946.3826m 
  130.00000p  945.7395m  945.6642m  946.8220m  946.5934m 
  131.00000p  946.0089m  945.9138m  947.0191m  946.8042m 
  132.00000p  946.2783m  946.1634m  947.2163m  947.0150m 
  133.00000p  946.5478m  946.4131m  947.4134m  947.2258m 
  134.00000p  946.8172m  946.6627m  947.6106m  947.4366m 
  135.00000p  947.0867m  946.9123m  947.8077m  947.6474m 
  136.00000p  947.3561m  947.1620m  948.0049m  947.8582m 
  137.00000p  947.6255m  947.4116m  948.2020m  948.0689m 
  138.00000p  947.8950m  947.6612m  948.3992m  948.2797m 
  139.00000p  948.0775m  947.8322m  948.5334m  948.4236m 
  140.00000p  948.1392m  947.8937m  948.5801m  948.4741m 
  141.00000p  948.2008m  947.9552m  948.6268m  948.5247m 
  142.00000p  948.2624m  948.0167m  948.6735m  948.5752m 
  143.00000p  948.3240m  948.0782m  948.7202m  948.6258m 
  144.00000p  948.3856m  948.1397m  948.7669m  948.6763m 
  145.00000p  948.4472m  948.2012m  948.8136m  948.7269m 
  146.00000p  948.5088m  948.2627m  948.8603m  948.7774m 
  147.00000p  948.5704m  948.3242m  948.9069m  948.8280m 
  148.00000p  948.6320m  948.3856m  948.9536m  948.8785m 
  149.00000p  948.6936m  948.4471m  949.0003m  948.9291m 
  150.00000p  948.7552m  948.5086m  949.0470m  948.9796m 
  151.00000p  948.8168m  948.5701m  949.0937m  949.0302m 
  152.00000p  948.8784m  948.6316m  949.1404m  949.0807m 
  153.00000p  948.9400m  948.6931m  949.1871m  949.1313m 
  154.00000p  949.0016m  948.7546m  949.2338m  949.1818m 
  155.00000p  949.0632m  948.8161m  949.2805m  949.2324m 
  156.00000p  949.1248m  948.8776m  949.3272m  949.2830m 
  157.00000p  949.1864m  948.9391m  949.3738m  949.3335m 
  158.00000p  949.2480m  949.0006m  949.4205m  949.3841m 
  159.00000p  949.3096m  949.0620m  949.4672m  949.4346m 
  160.00000p  949.3712m  949.1235m  949.5139m  949.4852m 
  161.00000p  949.4328m  949.1850m  949.5606m  949.5357m 
  162.00000p  949.4944m  949.2465m  949.6073m  949.5863m 
  163.00000p  949.5560m  949.3080m  949.6540m  949.6368m 
  164.00000p  949.6176m  949.3695m  949.7007m  949.6874m 
  165.00000p  949.6768m  949.4286m  949.7455m  949.7359m 
  166.00000p  949.6853m  949.4379m  949.7517m  949.7423m 
  167.00000p  949.6938m  949.4471m  949.7580m  949.7486m 
  168.00000p  949.7023m  949.4564m  949.7642m  949.7550m 
  169.00000p  949.7107m  949.4656m  949.7704m  949.7614m 
  170.00000p  949.7192m  949.4749m  949.7766m  949.7677m 
  171.00000p  949.7277m  949.4841m  949.7828m  949.7741m 
  172.00000p  949.7362m  949.4934m  949.7890m  949.7805m 
  173.00000p  949.7447m  949.5026m  949.7953m  949.7868m 
  174.00000p  949.7531m  949.5119m  949.8015m  949.7932m 
  175.00000p  949.7616m  949.5212m  949.8077m  949.7996m 
  176.00000p  949.7701m  949.5304m  949.8139m  949.8059m 
  177.00000p  949.7786m  949.5397m  949.8201m  949.8123m 
  178.00000p  949.7871m  949.5489m  949.8264m  949.8187m 
  179.00000p  949.7955m  949.5582m  949.8326m  949.8250m 
  180.00000p  949.8040m  949.5674m  949.8388m  949.8314m 
  181.00000p  949.8125m  949.5767m  949.8450m  949.8377m 
  182.00000p  949.8210m  949.5859m  949.8512m  949.8441m 
  183.00000p  949.8295m  949.5952m  949.8575m  949.8505m 
  184.00000p  949.8379m  949.6045m  949.8637m  949.8568m 
  185.00000p  949.8464m  949.6137m  949.8699m  949.8632m 
  186.00000p  949.8549m  949.6230m  949.8761m  949.8696m 
  187.00000p  949.8634m  949.6322m  949.8823m  949.8759m 
  188.00000p  949.8719m  949.6415m  949.8885m  949.8823m 
  189.00000p  949.8804m  949.6507m  949.8948m  949.8887m 
  190.00000p  949.8888m  949.6600m  949.9010m  949.8950m 
  191.00000p  949.8973m  949.6692m  949.9072m  949.9014m 
  192.00000p  949.9058m  949.6785m  949.9134m  949.9078m 
  193.00000p  949.9143m  949.6878m  949.9196m  949.9141m 
  194.00000p  949.9228m  949.6970m  949.9259m  949.9205m 
  195.00000p  949.9312m  949.7063m  949.9321m  949.9269m 
  196.00000p  949.9397m  949.7155m  949.9383m  949.9332m 
  197.00000p  949.9482m  949.7248m  949.9445m  949.9396m 
  198.00000p  949.9496m  949.7284m  949.9461m  949.9416m 
  199.00000p  949.9495m  949.7308m  949.9466m  949.9427m 
  200.00000p  949.9493m  949.7332m  949.9471m  949.9438m 
  201.00000p  949.9492m  949.7356m  949.9476m  949.9448m 
  202.00000p  949.9491m  949.7380m  949.9481m  949.9459m 
  203.00000p  949.9489m  949.7404m  949.9487m  949.9470m 
  204.00000p  949.9488m  949.7428m  949.9492m  949.9480m 
  205.00000p  949.9487m  949.7452m  949.9497m  949.9491m 
  206.00000p  949.9485m  949.7476m  949.9502m  949.9502m 
  207.00000p  949.9484m  949.7500m  949.9507m  949.9513m 
  208.00000p  949.9482m  949.7524m  949.9512m  949.9523m 
  209.00000p  949.9481m  949.7548m  949.9518m  949.9534m 
  210.00000p  949.9480m  949.7571m  949.9523m  949.9545m 
  211.00000p  949.9478m  949.7595m  949.9528m  949.9555m 
  212.00000p  949.9477m  949.7619m  949.9533m  949.9566m 
  213.00000p  950.2551m  950.0905m  950.4487m  950.3758m 
  214.00000p  951.1868m  951.0813m  951.9487m  951.6437m 
  215.00000p  952.1186m  952.0720m  953.4488m  952.9116m 
  216.00000p  953.0503m  953.0628m  954.9488m  954.1795m 
  217.00000p  953.9821m  954.0536m  956.4488m  955.4474m 
  218.00000p  954.9138m  955.0443m  957.9489m  956.7154m 
  219.00000p  955.8527m  956.0416m  959.4175m  957.9862m 
  220.00000p  956.8382m  957.0807m  960.6836m  959.2757m 
  221.00000p  957.8517m  958.1521m  961.8964m  960.5208m 
  222.00000p  958.9153m  959.2809m  963.0141m  961.6868m 
  223.00000p  959.9789m  960.4096m  964.1318m  962.8529m 
  224.00000p  961.0425m  961.5384m  965.2495m  964.0189m 
  225.00000p  962.1061m  962.6672m  966.3672m  965.1849m 
  226.00000p  963.1698m  963.7959m  967.4849m  966.3509m 
  227.00000p  964.0904m  964.9053m  968.3559m  967.1823m 
  228.00000p  964.9437m  966.0056m  969.1107m  967.8561m 
  229.00000p  965.7969m  967.1058m  969.8655m  968.5298m 
  230.00000p  966.6502m  968.2061m  970.6204m  969.2036m 
  231.00000p  967.5035m  969.3063m  971.3752m  969.8774m 
  232.00000p  968.3568m  970.4066m  972.1300m  970.5512m 
  233.00000p  969.2101m  971.5068m  972.8849m  971.2249m 
  234.00000p  970.0633m  972.6071m  973.6397m  971.8987m 
  235.00000p  970.9166m  973.7073m  974.3945m  972.5725m 
  236.00000p  971.7699m  974.8076m  975.1494m  973.2462m 
  237.00000p  972.6232m  975.9078m  975.9042m  973.9200m 
  238.00000p  973.4765m  977.0081m  976.6590m  974.5938m 
  239.00000p  974.3297m  978.1083m  977.4139m  975.2676m 
  240.00000p  975.1830m  979.2086m  978.1687m  975.9413m 
  241.00000p  976.0363m  980.3088m  978.9235m  976.6151m 
  242.00000p  976.8896m  981.4091m  979.6784m  977.2889m 
  243.00000p  977.7429m  982.5093m  980.4332m  977.9627m 
  244.00000p  978.5961m  983.6096m  981.1880m  978.6364m 
  245.00000p  979.0610m  984.7205m  981.4506m  978.7257m 
  246.00000p  979.1461m  985.8419m  981.2318m  978.2434m 
  247.00000p  979.2312m  986.9633m  981.0130m  977.7611m 
  248.00000p  979.3162m  988.0847m  980.7942m  977.2788m 
  249.00000p  979.4013m  989.2060m  980.5755m  976.7965m 
  250.00000p  979.4864m  990.3274m  980.3567m  976.3142m 
  251.00000p  979.5715m  991.4488m  980.1379m  975.8319m 
  252.00000p  979.6565m  992.5702m  979.9191m  975.3496m 
  253.00000p  979.7416m  993.6916m  979.7003m  974.8672m 
  254.00000p  979.8267m  994.8130m  979.4815m  974.3849m 
  255.00000p  979.9117m  995.9344m  979.2627m  973.9026m 
  256.00000p  979.9968m  997.0557m  979.0439m  973.4203m 
  257.00000p  980.0819m  998.1771m  978.8251m  972.9380m 
  258.00000p  980.1670m  999.2985m  978.6063m  972.4557m 
  259.00000p  979.6997m    1.0004   977.6815m  971.3004m 
  260.00000p  978.9555m    1.0015   976.4026m  969.8076m 
  261.00000p  978.2112m    1.0026   975.1237m  968.3148m 
  262.00000p  977.4670m    1.0037   973.8447m  966.8220m 
  263.00000p  976.4348m    1.0046   972.0227m  965.0252m 
  264.00000p  974.8180m    1.0051   969.0980m  962.6112m 
  265.00000p  973.1366m    1.0056   966.3444m  960.1758m 
  266.00000p  971.2415m    1.0059   963.8157m  957.6940m 
  267.00000p  969.2257m    1.0060   961.3643m  955.1898m 
  268.00000p  967.2098m    1.0062   958.9129m  952.6856m 
  269.00000p  965.1221m    1.0063   956.5153m  950.2529m 
  270.00000p  962.9003m    1.0064   954.2180m  947.9538m 
  271.00000p  960.6784m    1.0064   951.9207m  945.6547m 
  272.00000p  958.4566m    1.0064   949.6235m  943.3555m 
  273.00000p  956.2347m    1.0064   947.3262m  941.0564m 
  274.00000p  954.0129m    1.0064   945.0289m  938.7573m 
  275.00000p  951.7910m    1.0064   942.7316m  936.4582m 
