 ****** PrimeSim HSPICE -- T-2022.06-SP1 linux64 (Aug 19 2022 7764626) ******
  Copyright (c) 1986 - 2023 by Synopsys, Inc. All Rights Reserved.
  This software and the associated documentation are proprietary
  to Synopsys, Inc. This software may only be used in accordance
  with the terms and conditions of a written license agreement with
  Synopsys, Inc. All other use, reproduction, or distribution of
  this software is strictly prohibited.
  Input File: sram_writehh_power.sp                                             
  Command line options: /opt/synopsys/hspice/T-2022.06-SP1/hspice/linux64/hspice sram_writehh_power.sp
  Start time: Fri Jun 30 23:56:22 2023
 lic:  
 lic: FLEXlm: SDK_12.11.1 
 lic: USER:   yc2367               HOSTNAME: beluga 
 lic: HOSTID: 54802750             PID:      8822 
 lic: Using FLEXlm license file: 
 lic: 27000@flex.ece.cornell.edu 
 lic: Checkout 1 hspice 
 lic: License/Maintenance for hspice will expire on 09-jan-2025/2022.06 
 lic: 1(in_use)/50(total) FLOATING license(s) on SERVER 27000@flex.ece.cornell.edu 
 lic:   
  **info** (sram_writehh_power.sp:17) DC voltage reset to initial transient source value in source 0:vprecharge. new dc=0.9500D+00
  **warning** (nmos:xtgate1.mntgate (../basic_subcircuits.l:206)) Warning:  Acde = 0.245565 may be too small in BSIM4 model with w=2e-07 l=2.2e-08.
  **warning** (sram_writehh_power.sp:1719) Unable to find referenced node xprechargesa.n_1_2; Output variable ignored. Specify a valid node.
             
 Summary of Linear Res Distribution Info
 ---------------------------------------
 |Range          |Total     |Percent(%)|
 |---------------+----------+----------|
 |1e+00  ~  1e+03|512       |100.0000  |
 ---------------------------------------
              
             
 Summary of Linear Cap Distribution Info
 ---------------------------------------
 |Range          |Total     |Percent(%)|
 |---------------+----------+----------|
 |1e-17  ~  1e-16|1024      |100.0000  |
 ---------------------------------------
              
             
 Summary of Detailed RC Type Statistics
 -------------------------
 |Element Type|Number    |
 |------------+----------|
 |Constant Res|512       |
 |            |          |
 |Constant Cap|1024      |
 -------------------------
              
  

  **warning** the following singular supplies were terminated to 1 meg resistor 
          supply       node1            node2
(../process_data.l:43)vclmomtjn               0:vclmpmtj         defined in subckt 0                     0:0                defined in subckt 0               
(../process_data.l:38)vsupply                 0:vdd              defined in subckt 0                     0:0                defined in subckt 0               
(../process_data.l:42)vrefmtjn                0:vrefmtj          defined in subckt 0                     0:0                defined in subckt 0               
(../process_data.l:41)vsram                   0:vsram            defined in subckt 0                     0:0                defined in subckt 0               
(../process_data.l:44)vsram_n                 0:vsram_n          defined in subckt 0                     0:0                defined in subckt 0               
      
 **info** set option symb=1 internally to help for convergence.
 *****************************************************************
 ******  option summary
 ******
 runlvl  = 3         bypass  = 2.0000    
 **info** dc convergence successful at Newton-Raphson method 

   *** data name = sweep_data , index =     1 ***

 ******
 .title sram write power measurement circuit

 ****** transient analysis tnom=  25.000 temp=  25.000 ******
x

 time         voltage    voltage    voltage    voltage   
             tgate_l    tgate_r    n_bl_0     n_bl_64    
    0.        819.3235m   25.4554m  949.9989m  937.1808m 
    1.00000p  814.2466m   28.3397m  928.7412m  929.1659m 
    2.00000p  807.1483m   32.0155m  914.4867m  918.2202m 
    3.00000p  799.3666m   35.9173m  901.8278m  906.8737m 
    4.00000p  790.9955m   40.0120m  890.7550m  895.8869m 
    5.00000p  782.6244m   44.1066m  879.6822m  884.9001m 
    6.00000p  774.8865m   48.0234m  869.7746m  875.1341m 
    7.00000p  767.4016m   51.8693m  860.3324m  865.8558m 
    8.00000p  759.9167m   55.7151m  850.8903m  856.5776m 
    9.00000p  752.8736m   59.4741m  841.7164m  847.5372m 
   10.00000p  748.7396m   62.6611m  834.3094m  840.0639m 
   11.00000p  744.6057m   65.8481m  826.9024m  832.5905m 
   12.00000p  740.4718m   69.0351m  819.4954m  825.1171m 
   13.00000p  736.3379m   72.2220m  812.0884m  817.6437m 
   14.00000p  734.3517m   75.0606m  805.9844m  811.3790m 
   15.00000p  734.3762m   77.5729m  801.1002m  806.2459m 
   16.00000p  734.4007m   80.0853m  796.2161m  801.1127m 
   17.00000p  734.4253m   82.5976m  791.3319m  795.9795m 
   18.00000p  734.4498m   85.1099m  786.4477m  790.8463m 
   19.00000p  734.4743m   87.6223m  781.5635m  785.7132m 
   20.00000p  734.4989m   90.1346m  776.6794m  780.5800m 
   21.00000p  735.2001m   92.7046m  773.0197m  776.6528m 
   22.00000p  736.5203m   95.3274m  770.4803m  773.8288m 
   23.00000p  737.8406m   97.9501m  767.9410m  771.0049m 
   24.00000p  739.1608m  100.5729m  765.4016m  768.1810m 
   25.00000p  740.4811m  103.1956m  762.8622m  765.3571m 
   26.00000p  741.8013m  105.8184m  760.3228m  762.5331m 
   27.00000p  743.0393m  108.6730m  758.0347m  759.9517m 
   28.00000p  743.6484m  113.3007m  757.6692m  759.2255m 
   29.00000p  744.2575m  117.9285m  757.3037m  758.4994m 
   30.00000p  744.8666m  122.5563m  756.9382m  757.7732m 
   31.00000p  745.4757m  127.1841m  756.5727m  757.0470m 
   32.00000p  746.0848m  131.8119m  756.2072m  756.3209m 
   33.00000p  746.6939m  136.4397m  755.8417m  755.5947m 
   34.00000p  747.3030m  141.0674m  755.4762m  754.8685m 
   35.00000p  748.3167m  148.9835m  756.7329m  755.8427m 
   36.00000p  749.4204m  157.6318m  758.3508m  757.1954m 
   37.00000p  750.5242m  166.2800m  759.9688m  758.5481m 
   38.00000p  751.6279m  174.9283m  761.5867m  759.9008m 
   39.00000p  752.7316m  183.5765m  763.2046m  761.2535m 
   40.00000p  753.8354m  192.2248m  764.8225m  762.6062m 
   41.00000p  754.9391m  200.8730m  766.4405m  763.9589m 
   42.00000p  756.0429m  209.5213m  768.0584m  765.3116m 
   43.00000p  757.4707m  222.1241m  769.2535m  766.6957m 
   44.00000p  758.9725m  235.6291m  770.3521m  768.0869m 
   45.00000p  760.4742m  249.1342m  771.4507m  769.4782m 
   46.00000p  761.9760m  262.6393m  772.5493m  770.8694m 
   47.00000p  763.4778m  276.1443m  773.6479m  772.2607m 
   48.00000p  764.9796m  289.6494m  774.7465m  773.6520m 
   49.00000p  766.4813m  303.1544m  775.8451m  775.0432m 
   50.00000p  767.9831m  316.6595m  776.9437m  776.4345m 
   51.00000p  769.7880m  329.4659m  778.9576m  778.1744m 
   52.00000p  771.5929m  342.2724m  780.9716m  779.9143m 
   53.00000p  773.3978m  355.0788m  782.9855m  781.6543m 
   54.00000p  775.2027m  367.8853m  784.9995m  783.3942m 
   55.00000p  777.0076m  380.6918m  787.0134m  785.1341m 
   56.00000p  778.8239m  393.5301m  789.0243m  786.8993m 
   57.00000p  780.6770m  406.4716m  791.0251m  788.7461m 
   58.00000p  782.7332m  421.6026m  793.2756m  790.8695m 
   59.00000p  784.8416m  437.2952m  795.5902m  793.0639m 
   60.00000p  786.9499m  452.9879m  797.9047m  795.2582m 
   61.00000p  789.0583m  468.6806m  800.2193m  797.4526m 
   62.00000p  791.2444m  485.1244m  802.6263m  799.7395m 
   63.00000p  793.7715m  504.8610m  805.4385m  802.4321m 
   64.00000p  796.2986m  524.5976m  808.2508m  805.1247m 
   65.00000p  798.8258m  544.3343m  811.0630m  807.8173m 
   66.00000p  801.3529m  564.0709m  813.8753m  810.5099m 
   67.00000p  803.9103m  583.7230m  816.7096m  813.2292m 
   68.00000p  806.9023m  602.1641m  819.8594m  816.3303m 
   69.00000p  809.8944m  620.6052m  823.0093m  819.4315m 
   70.00000p  812.8864m  639.0463m  826.1592m  822.5326m 
   71.00000p  815.8784m  657.4875m  829.3090m  825.6338m 
   72.00000p  818.8704m  675.9286m  832.4589m  828.7350m 
   73.00000p  821.8955m  693.5161m  835.6159m  831.8514m 
   74.00000p  825.1238m  705.8622m  838.8168m  835.0614m 
   75.00000p  828.3521m  718.2082m  842.0177m  838.2714m 
   76.00000p  831.5805m  730.5543m  845.2185m  841.4814m 
   77.00000p  834.8088m  742.9003m  848.4194m  844.6913m 
   78.00000p  838.0371m  755.2464m  851.6203m  847.9013m 
   79.00000p  841.2655m  767.5924m  854.8211m  851.1113m 
   80.00000p  844.4396m  777.9281m  857.8921m  854.2132m 
   81.00000p  847.5295m  785.1338m  860.7609m  857.1469m 
   82.00000p  850.6194m  792.3394m  863.6297m  860.0805m 
   83.00000p  853.7093m  799.5451m  866.4985m  863.0141m 
   84.00000p  856.7991m  806.7507m  869.3673m  865.9477m 
   85.00000p  859.8890m  813.9564m  872.2361m  868.8814m 
   86.00000p  862.9789m  821.1620m  875.1049m  871.8150m 
   87.00000p  866.0687m  828.3677m  877.9736m  874.7486m 
   88.00000p  869.1586m  835.5733m  880.8424m  877.6822m 
   89.00000p  872.2485m  842.7790m  883.7112m  880.6159m 
   90.00000p  874.9699m  847.9582m  886.1463m  883.1313m 
   91.00000p  877.5565m  852.3961m  888.4228m  885.4937m 
   92.00000p  880.1432m  856.8341m  890.6992m  887.8561m 
   93.00000p  882.7298m  861.2720m  892.9757m  890.2185m 
   94.00000p  885.3165m  865.7100m  895.2521m  892.5809m 
   95.00000p  887.9031m  870.1480m  897.5286m  894.9433m 
   96.00000p  890.4897m  874.5859m  899.8051m  897.3057m 
   97.00000p  893.0764m  879.0239m  902.0815m  899.6681m 
   98.00000p  895.4346m  882.8695m  904.1419m  901.8106m 
   99.00000p  897.3494m  885.5649m  905.7828m  903.5262m 
  100.00000p  899.2641m  888.2602m  907.4237m  905.2417m 
  101.00000p  901.1789m  890.9556m  909.0646m  906.9573m 
  102.00000p  903.0937m  893.6510m  910.7055m  908.6728m 
  103.00000p  905.0085m  896.3464m  912.3464m  910.3884m 
  104.00000p  906.9232m  899.0418m  913.9873m  912.1039m 
  105.00000p  908.8380m  901.7372m  915.6282m  913.8195m 
  106.00000p  910.7528m  904.4326m  917.2691m  915.5350m 
  107.00000p  912.6675m  907.1280m  918.9100m  917.2506m 
  108.00000p  914.5823m  909.8234m  920.5509m  918.9661m 
  109.00000p  915.8415m  911.3753m  921.6146m  920.0842m 
  110.00000p  917.0378m  912.8177m  922.6231m  921.1451m 
  111.00000p  918.2342m  914.2601m  923.6315m  922.2060m 
  112.00000p  919.4306m  915.7024m  924.6399m  923.2669m 
  113.00000p  920.6269m  917.1448m  925.6483m  924.3277m 
  114.00000p  921.8233m  918.5872m  926.6568m  925.3886m 
  115.00000p  923.0197m  920.0296m  927.6652m  926.4495m 
  116.00000p  924.2160m  921.4719m  928.6736m  927.5104m 
  117.00000p  925.4124m  922.9143m  929.6821m  928.5712m 
  118.00000p  926.6088m  924.3567m  930.6905m  929.6321m 
  119.00000p  927.8051m  925.7990m  931.6989m  930.6930m 
  120.00000p  929.0015m  927.2414m  932.7074m  931.7539m 
  121.00000p  930.1979m  928.6838m  933.7158m  932.8147m 
  122.00000p  931.3942m  930.1262m  934.7242m  933.8756m 
  123.00000p  932.1396m  930.9730m  935.3455m  934.5306m 
  124.00000p  932.7533m  931.6461m  935.8539m  935.0672m 
  125.00000p  933.3671m  932.3191m  936.3622m  935.6038m 
  126.00000p  933.9808m  932.9921m  936.8706m  936.1404m 
  127.00000p  934.5945m  933.6651m  937.3789m  936.6769m 
  128.00000p  935.2083m  934.3382m  937.8872m  937.2135m 
  129.00000p  935.8220m  935.0112m  938.3956m  937.7501m 
  130.00000p  936.4357m  935.6842m  938.9039m  938.2867m 
  131.00000p  937.0495m  936.3572m  939.4123m  938.8232m 
  132.00000p  937.6632m  937.0303m  939.9206m  939.3598m 
  133.00000p  938.2769m  937.7033m  940.4290m  939.8964m 
  134.00000p  938.8907m  938.3763m  940.9373m  940.4329m 
  135.00000p  939.5044m  939.0494m  941.4456m  940.9695m 
  136.00000p  940.1181m  939.7224m  941.9540m  941.5061m 
  137.00000p  940.7319m  940.3954m  942.4623m  942.0427m 
  138.00000p  941.3456m  941.0684m  942.9707m  942.5792m 
  139.00000p  941.6045m  941.3465m  943.1857m  942.8064m 
  140.00000p  941.8591m  941.6198m  943.3971m  943.0299m 
  141.00000p  942.1137m  941.8931m  943.6086m  943.2534m 
  142.00000p  942.3683m  942.1663m  943.8201m  943.4769m 
  143.00000p  942.6229m  942.4396m  944.0316m  943.7004m 
  144.00000p  942.8775m  942.7129m  944.2430m  943.9238m 
  145.00000p  943.1321m  942.9862m  944.4545m  944.1473m 
  146.00000p  943.3867m  943.2595m  944.6660m  944.3708m 
  147.00000p  943.6413m  943.5328m  944.8775m  944.5943m 
  148.00000p  943.8959m  943.8061m  945.0890m  944.8178m 
  149.00000p  944.1505m  944.0794m  945.3004m  945.0413m 
  150.00000p  944.4051m  944.3527m  945.5119m  945.2647m 
  151.00000p  944.6597m  944.6260m  945.7234m  945.4882m 
  152.00000p  944.9143m  944.8993m  945.9349m  945.7117m 
  153.00000p  945.1689m  945.1726m  946.1463m  945.9352m 
  154.00000p  945.4235m  945.4458m  946.3578m  946.1587m 
  155.00000p  945.6781m  945.7191m  946.5693m  946.3822m 
  156.00000p  945.9327m  945.9924m  946.7808m  946.6056m 
  157.00000p  946.1873m  946.2657m  946.9923m  946.8291m 
  158.00000p  946.4420m  946.5390m  947.2037m  947.0526m 
  159.00000p  946.6966m  946.8123m  947.4152m  947.2761m 
  160.00000p  946.9512m  947.0856m  947.6267m  947.4996m 
  161.00000p  947.1542m  947.3025m  947.7948m  947.6772m 
  162.00000p  947.2263m  947.3766m  947.8528m  947.7385m 
  163.00000p  947.2985m  947.4507m  947.9109m  947.7999m 
  164.00000p  947.3707m  947.5248m  947.9690m  947.8612m 
  165.00000p  947.4429m  947.5989m  948.0270m  947.9226m 
  166.00000p  947.5151m  947.6730m  948.0851m  947.9839m 
  167.00000p  947.5872m  947.7471m  948.1432m  948.0452m 
  168.00000p  947.6594m  947.8213m  948.2012m  948.1066m 
  169.00000p  947.7316m  947.8954m  948.2593m  948.1679m 
  170.00000p  947.8038m  947.9695m  948.3174m  948.2292m 
  171.00000p  947.8759m  948.0436m  948.3754m  948.2906m 
  172.00000p  947.9481m  948.1177m  948.4335m  948.3519m 
  173.00000p  948.0203m  948.1918m  948.4916m  948.4133m 
  174.00000p  948.0925m  948.2659m  948.5496m  948.4746m 
  175.00000p  948.1647m  948.3400m  948.6077m  948.5359m 
  176.00000p  948.2368m  948.4141m  948.6657m  948.5973m 
  177.00000p  948.3090m  948.4882m  948.7238m  948.6586m 
  178.00000p  948.3812m  948.5623m  948.7819m  948.7199m 
  179.00000p  948.4534m  948.6364m  948.8399m  948.7813m 
  180.00000p  948.5255m  948.7105m  948.8980m  948.8426m 
  181.00000p  948.5977m  948.7846m  948.9561m  948.9040m 
  182.00000p  948.6699m  948.8587m  949.0141m  948.9653m 
  183.00000p  948.7421m  948.9328m  949.0722m  949.0266m 
  184.00000p  948.8143m  949.0069m  949.1303m  949.0880m 
  185.00000p  948.8864m  949.0810m  949.1883m  949.1493m 
  186.00000p  948.9586m  949.1551m  949.2464m  949.2106m 
  187.00000p  949.0308m  949.2292m  949.3045m  949.2720m 
  188.00000p  949.0998m  949.2999m  949.3600m  949.3306m 
  189.00000p  949.1164m  949.3162m  949.3736m  949.3450m 
  190.00000p  949.1331m  949.3325m  949.3873m  949.3594m 
  191.00000p  949.1498m  949.3488m  949.4010m  949.3738m 
  192.00000p  949.1665m  949.3651m  949.4146m  949.3882m 
  193.00000p  949.1832m  949.3814m  949.4283m  949.4026m 
  194.00000p  949.1999m  949.3976m  949.4420m  949.4170m 
  195.00000p  949.2166m  949.4139m  949.4556m  949.4314m 
  196.00000p  949.2333m  949.4302m  949.4693m  949.4458m 
  197.00000p  949.2500m  949.4465m  949.4830m  949.4602m 
  198.00000p  949.2666m  949.4628m  949.4966m  949.4746m 
  199.00000p  949.2833m  949.4791m  949.5103m  949.4890m 
  200.00000p  949.3000m  949.4953m  949.5240m  949.5034m 
  201.00000p  949.3167m  949.5116m  949.5376m  949.5178m 
  202.00000p  949.3334m  949.5279m  949.5513m  949.5322m 
  203.00000p  949.3501m  949.5442m  949.5650m  949.5465m 
  204.00000p  949.3668m  949.5605m  949.5786m  949.5609m 
  205.00000p  949.3831m  949.5764m  949.5920m  949.5750m 
  206.00000p  949.3928m  949.5851m  949.5995m  949.5829m 
  207.00000p  949.4026m  949.5938m  949.6070m  949.5908m 
  208.00000p  949.4123m  949.6026m  949.6145m  949.5988m 
  209.00000p  949.4221m  949.6113m  949.6220m  949.6067m 
  210.00000p  949.4318m  949.6201m  949.6296m  949.6146m 
  211.00000p  949.4415m  949.6288m  949.6371m  949.6226m 
  212.00000p  949.4513m  949.6376m  949.6446m  949.6305m 
  213.00000p  949.4610m  949.6463m  949.6521m  949.6384m 
  214.00000p  949.4708m  949.6551m  949.6596m  949.6464m 
  215.00000p  949.4805m  949.6638m  949.6672m  949.6543m 
  216.00000p  949.4903m  949.6726m  949.6747m  949.6622m 
  217.00000p  949.5000m  949.6813m  949.6822m  949.6702m 
  218.00000p  949.5097m  949.6901m  949.6897m  949.6781m 
  219.00000p  949.5195m  949.6988m  949.6972m  949.6860m 
  220.00000p  949.5292m  949.7076m  949.7048m  949.6940m 
  221.00000p  949.5390m  949.7163m  949.7123m  949.7019m 
  222.00000p  949.5487m  949.7251m  949.7198m  949.7098m 
  223.00000p  949.5585m  949.7338m  949.7273m  949.7177m 
  224.00000p  949.5682m  949.7426m  949.7348m  949.7257m 
  225.00000p  949.5780m  949.7513m  949.7424m  949.7336m 
  226.00000p  949.5877m  949.7601m  949.7499m  949.7415m 
  227.00000p  949.5974m  949.7688m  949.7574m  949.7495m 
  228.00000p  949.6072m  949.7776m  949.7649m  949.7574m 
  229.00000p  949.6169m  949.7863m  949.7724m  949.7653m 
  230.00000p  949.6267m  949.7951m  949.7800m  949.7733m 
  231.00000p  949.6364m  949.8038m  949.7875m  949.7812m 
  232.00000p  949.6462m  949.8126m  949.7950m  949.7891m 
  233.00000p  949.6559m  949.8213m  949.8025m  949.7971m 
  234.00000p  949.6656m  949.8300m  949.8100m  949.8050m 
  235.00000p  949.6754m  949.8388m  949.8176m  949.8129m 
  236.00000p  949.6851m  949.8475m  949.8251m  949.8209m 
  237.00000p  949.6949m  949.8563m  949.8326m  949.8288m 
  238.00000p  949.7046m  949.8650m  949.8401m  949.8367m 
  239.00000p  949.7144m  949.8738m  949.8476m  949.8446m 
  240.00000p  949.7241m  949.8825m  949.8551m  949.8526m 
  241.00000p  949.7281m  949.8862m  949.8584m  949.8559m 
  242.00000p  949.7308m  949.8887m  949.8605m  949.8581m 
  243.00000p  949.7335m  949.8912m  949.8627m  949.8604m 
  244.00000p  949.7361m  949.8937m  949.8648m  949.8626m 
  245.00000p  949.7388m  949.8962m  949.8670m  949.8648m 
  246.00000p  949.7414m  949.8987m  949.8692m  949.8671m 
  247.00000p  949.7441m  949.9012m  949.8713m  949.8693m 
  248.00000p  949.7468m  949.9037m  949.8735m  949.8715m 
  249.00000p  949.7494m  949.9062m  949.8756m  949.8738m 
  250.00000p  949.7521m  949.9087m  949.8778m  949.8760m 
  251.00000p  950.1418m  950.2933m  950.5760m  950.4230m 
  252.00000p  950.9185m  951.0600m  951.9703m  951.5148m 
  253.00000p  951.6952m  951.8266m  953.3646m  952.6066m 
  254.00000p  952.4719m  952.5933m  954.7589m  953.6984m 
  255.00000p  953.2714m  953.3814m  956.0639m  954.8071m 
  256.00000p  954.1087m  954.2049m  957.2219m  955.9435m 
  257.00000p  955.0436m  955.1002m  958.2360m  957.0127m 
  258.00000p  956.0002m  956.0113m  959.2182m  958.0671m 
  259.00000p  956.9567m  956.9224m  960.2004m  959.1214m 
  260.00000p  957.9133m  957.8335m  961.1826m  960.1757m 
  261.00000p  958.8698m  958.7446m  962.1649m  961.2300m 
  262.00000p  959.7597m  959.6514m  963.0289m  962.0724m 
  263.00000p  960.6361m  960.5572m  963.8688m  962.8715m 
  264.00000p  961.5124m  961.4630m  964.7087m  963.6706m 
  265.00000p  962.3887m  962.3688m  965.5486m  964.4697m 
  266.00000p  963.2651m  963.2746m  966.3885m  965.2688m 
  267.00000p  964.1414m  964.1804m  967.2284m  966.0679m 
  268.00000p  965.0177m  965.0862m  968.0683m  966.8671m 
  269.00000p  965.8940m  965.9921m  968.9082m  967.6662m 
  270.00000p  966.7704m  966.8979m  969.7481m  968.4653m 
  271.00000p  967.6467m  967.8037m  970.5880m  969.2644m 
  272.00000p  968.5230m  968.7095m  971.4279m  970.0635m 
  273.00000p  969.3994m  969.6153m  972.2678m  970.8626m 
  274.00000p  970.2757m  970.5211m  973.1077m  971.6617m 
  275.00000p  971.1520m  971.4270m  973.9476m  972.4608m 
  276.00000p  972.0283m  972.3328m  974.7874m  973.2599m 
  277.00000p  972.9047m  973.2386m  975.6273m  974.0590m 
  278.00000p  971.6685m  974.0030m  975.2780m  973.6604m 
