 ****** PrimeSim HSPICE -- T-2022.06-SP1 linux64 (Aug 19 2022 7764626) ******
  Copyright (c) 1986 - 2023 by Synopsys, Inc. All Rights Reserved.
  This software and the associated documentation are proprietary
  to Synopsys, Inc. This software may only be used in accordance
  with the terms and conditions of a written license agreement with
  Synopsys, Inc. All other use, reproduction, or distribution of
  this software is strictly prohibited.
  Input File: sram_writelh_power.sp                                             
  Command line options: /opt/synopsys/hspice/T-2022.06-SP1/hspice/linux64/hspice sram_writelh_power.sp
  Start time: Sat Jul  1 18:32:33 2023
 lic:  
 lic: FLEXlm: SDK_12.11.1 
 lic: USER:   yc2367               HOSTNAME: beluga 
 lic: HOSTID: 54802750             PID:      27883 
 lic: Using FLEXlm license file: 
 lic: 27000@flex.ece.cornell.edu 
 lic: Checkout 1 hspice 
 lic: License/Maintenance for hspice will expire on 09-jan-2025/2022.06 
 lic: 1(in_use)/50(total) FLOATING license(s) on SERVER 27000@flex.ece.cornell.edu 
 lic:   
  **info** (sram_writelh_power.sp:18) DC voltage reset to initial transient source value in source 0:vdatain. new dc=0.9500D+00
  **warning** (sram_writelh_power.sp:18) pulse rise time is  < or = zero, reset to tstep
  **warning** (sram_writelh_power.sp:18) pulse fall time is  < or = zero, reset to tstep
  **warning** (nmos:xtgate1.mntgate (../basic_subcircuits.l:206)) Warning:  Acde = 0.245565 may be too small in BSIM4 model with w=2e-07 l=2.2e-08.
  **warning** (sram_writelh_power.sp:3384) Unable to find referenced node xprechargesa.n_1_2; Output variable ignored. Specify a valid node.
             
 Summary of Linear Res Distribution Info
 ---------------------------------------
 |Range          |Total     |Percent(%)|
 |---------------+----------+----------|
 |1e+00  ~  1e+03|1024      |100.0000  |
 ---------------------------------------
              
             
 Summary of Linear Cap Distribution Info
 ---------------------------------------
 |Range          |Total     |Percent(%)|
 |---------------+----------+----------|
 |1e-17  ~  1e-16|2048      |100.0000  |
 ---------------------------------------
              
             
 Summary of Detailed RC Type Statistics
 -------------------------
 |Element Type|Number    |
 |------------+----------|
 |Constant Res|1024      |
 |            |          |
 |Constant Cap|2048      |
 -------------------------
              
  

  **warning** the following singular supplies were terminated to 1 meg resistor 
          supply       node1            node2
(../process_data.l:43)vclmomtjn               0:vclmpmtj         defined in subckt 0                     0:0                defined in subckt 0               
(../process_data.l:38)vsupply                 0:vdd              defined in subckt 0                     0:0                defined in subckt 0               
(../process_data.l:42)vrefmtjn                0:vrefmtj          defined in subckt 0                     0:0                defined in subckt 0               
(../process_data.l:41)vsram                   0:vsram            defined in subckt 0                     0:0                defined in subckt 0               
(../process_data.l:44)vsram_n                 0:vsram_n          defined in subckt 0                     0:0                defined in subckt 0               
      
 **info** set option symb=1 internally to help for convergence.
 *****************************************************************
 ******  option summary
 ******
 runlvl  = 3         bypass  = 2.0000    
 **info** dc convergence successful at Newton-Raphson method 

   *** data name = sweep_data , index =     1 ***

 ******
 .title sram write power measurement circuit

 ****** transient analysis tnom=  25.000 temp=  25.000 ******
x

 time         voltage    voltage    voltage    voltage   
             tgate_l    tgate_r    n_bl_0     n_bl_128   
    0.        819.3235m   25.4554m  949.9989m  924.5035m 
    1.00000p  794.5929m   27.4077m  929.1576m  923.4219m 
    2.00000p  825.9199m   34.1107m  917.3324m  921.2144m 
    3.00000p  846.8811m   37.6677m  911.6809m  917.3034m 
    4.00000p  864.1860m   40.1912m  907.3652m  913.2057m 
    5.00000p  873.6252m   40.5797m  905.0988m  909.3328m 
    6.00000p  883.0645m   40.9682m  902.8324m  905.4599m 
    7.00000p  889.7296m   40.7844m  900.9130m  902.3549m 
    8.00000p  892.6543m   39.8288m  899.4615m  900.2855m 
    9.00000p  895.5790m   38.8733m  898.0100m  898.2160m 
   10.00000p  898.5037m   37.9178m  896.5585m  896.1466m 
   11.00000p  899.1722m   37.0035m  895.3699m  894.9653m 
   12.00000p  899.2310m   36.1003m  894.2524m  894.0241m 
   13.00000p  899.2897m   35.1971m  893.1348m  893.0829m 
   14.00000p  899.3485m   34.2939m  892.0173m  892.1416m 
   15.00000p  899.4072m   33.3907m  890.8997m  891.2004m 
   16.00000p  899.0194m   32.9065m  889.9345m  890.4453m 
   17.00000p  898.2854m   32.7472m  889.0873m  889.8345m 
   18.00000p  897.5514m   32.5878m  888.2402m  889.2237m 
   19.00000p  896.8174m   32.4285m  887.3931m  888.6129m 
   20.00000p  896.0834m   32.2692m  886.5459m  888.0021m 
   21.00000p  895.3493m   32.1098m  885.6988m  887.3914m 
   22.00000p  894.6153m   31.9505m  884.8516m  886.7806m 
   23.00000p  893.8154m   32.8827m  883.8139m  886.0614m 
   24.00000p  892.9844m   34.3269m  882.6868m  885.2913m 
   25.00000p  892.1535m   35.7711m  881.5597m  884.5212m 
   26.00000p  891.3226m   37.2154m  880.4326m  883.7511m 
   27.00000p  890.4917m   38.6596m  879.3055m  882.9811m 
   28.00000p  889.6608m   40.1039m  878.1784m  882.2110m 
   29.00000p  888.8299m   41.5481m  877.0513m  881.4409m 
   30.00000p  887.6973m   45.5682m  875.3589m  880.2874m 
   31.00000p  886.3868m   51.1063m  873.3334m  878.9079m 
   32.00000p  885.0763m   56.6445m  871.3078m  877.5283m 
   33.00000p  883.7659m   62.1826m  869.2822m  876.1488m 
   34.00000p  882.4554m   67.7208m  867.2567m  874.7693m 
   35.00000p  881.1449m   73.2589m  865.2311m  873.3898m 
   36.00000p  879.8255m   78.8578m  863.1978m  872.0016m 
   37.00000p  877.5596m   90.8687m  860.3459m  869.6981m 
   38.00000p  875.2938m  102.8797m  857.4941m  867.3946m 
   39.00000p  873.0279m  114.8907m  854.6423m  865.0911m 
   40.00000p  870.7620m  126.9017m  851.7904m  862.7875m 
   41.00000p  868.4961m  138.9126m  848.9386m  860.4840m 
   42.00000p  866.2302m  150.9236m  846.0867m  858.1805m 
   43.00000p  863.9643m  162.9346m  843.2349m  855.8770m 
   44.00000p  861.3751m  176.7383m  840.2132m  853.3153m 
   45.00000p  858.2295m  193.6262m  836.8994m  850.3094m 
   46.00000p  855.0840m  210.5141m  833.5855m  847.3034m 
   47.00000p  851.9384m  227.4019m  830.2717m  844.2975m 
   48.00000p  848.7928m  244.2898m  826.9578m  841.2916m 
   49.00000p  845.6473m  261.1777m  823.6440m  838.2857m 
   50.00000p  842.5017m  278.0655m  820.3302m  835.2797m 
   51.00000p  839.8816m  295.2229m  820.3054m  832.6562m 
   52.00000p  837.3466m  312.1210m  820.1651m  830.1183m 
   53.00000p  835.0917m  328.0926m  819.8558m  827.9110m 
   54.00000p  833.3419m  342.2589m  819.6318m  826.3895m 
   55.00000p  831.5922m  356.4252m  819.4078m  824.8680m 
   56.00000p  829.8424m  370.5915m  819.1838m  823.3465m 
   57.00000p  828.5130m  384.6756m  819.3211m  822.3516m 
   58.00000p  827.5990m  398.6785m  819.8156m  821.8773m 
   59.00000p  826.6851m  412.6813m  820.3101m  821.4029m 
   60.00000p  825.7712m  426.6842m  820.8046m  820.9286m 
   61.00000p  825.1896m  441.9273m  821.5657m  820.7559m 
   62.00000p  825.3567m  459.9642m  822.9274m  821.2628m 
   63.00000p  825.5239m  478.0011m  824.2891m  821.7696m 
   64.00000p  825.6910m  496.0381m  825.6508m  822.2764m 
   65.00000p  825.8582m  514.0750m  827.0125m  822.7832m 
   66.00000p  826.0254m  532.1119m  828.3742m  823.2900m 
   67.00000p  826.7102m  550.8550m  830.0739m  824.2459m 
   68.00000p  827.9886m  570.4078m  832.1613m  825.7168m 
   69.00000p  829.2670m  589.9607m  834.2487m  827.1877m 
   70.00000p  830.5455m  609.5136m  836.3361m  828.6586m 
   71.00000p  831.8239m  629.0665m  838.4234m  830.1295m 
   72.00000p  833.1024m  648.6193m  840.5108m  831.6003m 
   73.00000p  835.0046m  664.3422m  842.9028m  833.6131m 
   74.00000p  837.0696m  679.0648m  845.3743m  835.7674m 
   75.00000p  839.1347m  693.7873m  847.8458m  837.9216m 
   76.00000p  841.1998m  708.5099m  850.3173m  840.0759m 
   77.00000p  843.2649m  723.2325m  852.7888m  842.2302m 
   78.00000p  845.3300m  737.9551m  855.2603m  844.3844m 
   79.00000p  847.3951m  752.6776m  857.7318m  846.5387m 
   80.00000p  849.5314m  766.2108m  860.2076m  848.7548m 
   81.00000p  851.9768m  774.5883m  862.7022m  851.2393m 
   82.00000p  854.4222m  782.9658m  865.1968m  853.7237m 
   83.00000p  856.8675m  791.3434m  867.6914m  856.2082m 
   84.00000p  859.3129m  799.7209m  870.1860m  858.6926m 
   85.00000p  861.7583m  808.0984m  872.6807m  861.1771m 
   86.00000p  864.2037m  816.4759m  875.1753m  863.6615m 
   87.00000p  866.6490m  824.8535m  877.6699m  866.1460m 
   88.00000p  869.0944m  833.2310m  880.1645m  868.6304m 
   89.00000p  871.4630m  840.3425m  882.5088m  871.0298m 
   90.00000p  873.6454m  844.3825m  884.4885m  873.2226m 
   91.00000p  875.8279m  848.4225m  886.4681m  875.4155m 
   92.00000p  878.0103m  852.4625m  888.4477m  877.6083m 
   93.00000p  880.1927m  856.5024m  890.4274m  879.8011m 
   94.00000p  882.3751m  860.5424m  892.4070m  881.9940m 
   95.00000p  884.5575m  864.5824m  894.3867m  884.1868m 
   96.00000p  886.7400m  868.6224m  896.3663m  886.3797m 
   97.00000p  888.9224m  872.6624m  898.3460m  888.5725m 
   98.00000p  891.1048m  876.7023m  900.3256m  890.7653m 
   99.00000p  893.2872m  880.7423m  902.3053m  892.9582m 
  100.00000p  895.4697m  884.7823m  904.2849m  895.1510m 
  101.00000p  897.6521m  888.8223m  906.2646m  897.3439m 
  102.00000p  899.8345m  892.8623m  908.2442m  899.5367m 
  103.00000p  902.0169m  896.9022m  910.2239m  901.7296m 
  104.00000p  904.0089m  900.2864m  912.0004m  903.7297m 
  105.00000p  905.5454m  902.1030m  913.2912m  905.2692m 
  106.00000p  907.0820m  903.9195m  914.5821m  906.8086m 
  107.00000p  908.6186m  905.7361m  915.8730m  908.3481m 
  108.00000p  910.1552m  907.5526m  917.1638m  909.8876m 
  109.00000p  911.6918m  909.3692m  918.4547m  911.4270m 
  110.00000p  913.2284m  911.1857m  919.7456m  912.9665m 
  111.00000p  914.7650m  913.0023m  921.0364m  914.5060m 
  112.00000p  916.3016m  914.8188m  922.3273m  916.0455m 
  113.00000p  917.8382m  916.6354m  923.6182m  917.5849m 
  114.00000p  919.3748m  918.4519m  924.9091m  919.1244m 
  115.00000p  920.9114m  920.2685m  926.1999m  920.6639m 
  116.00000p  922.1175m  921.6319m  927.2045m  921.8756m 
  117.00000p  923.0122m  922.5685m  927.9393m  922.7786m 
  118.00000p  923.9069m  923.5051m  928.6741m  923.6815m 
  119.00000p  924.8017m  924.4418m  929.4089m  924.5845m 
  120.00000p  925.6964m  925.3784m  930.1436m  925.4875m 
  121.00000p  926.5911m  926.3150m  930.8784m  926.3905m 
  122.00000p  927.4858m  927.2516m  931.6132m  927.2934m 
  123.00000p  928.3805m  928.1882m  932.3480m  928.1964m 
  124.00000p  929.2752m  929.1248m  933.0828m  929.0994m 
  125.00000p  930.1700m  930.0614m  933.8176m  930.0023m 
  126.00000p  931.0647m  930.9980m  934.5524m  930.9053m 
  127.00000p  931.9594m  931.9346m  935.2872m  931.8083m 
  128.00000p  932.8541m  932.8713m  936.0220m  932.7112m 
  129.00000p  933.7488m  933.8079m  936.7568m  933.6142m 
  130.00000p  934.6435m  934.7445m  937.4916m  934.5172m 
  131.00000p  935.5382m  935.6811m  938.2264m  935.4202m 
  132.00000p  936.4330m  936.6177m  938.9612m  936.3231m 
  133.00000p  936.9427m  937.1249m  939.3777m  936.8367m 
  134.00000p  937.3532m  937.5214m  939.7122m  937.2498m 
  135.00000p  937.7637m  937.9178m  940.0466m  937.6629m 
  136.00000p  938.1742m  938.3143m  940.3811m  938.0760m 
  137.00000p  938.5847m  938.7108m  940.7155m  938.4891m 
  138.00000p  938.9952m  939.1072m  941.0499m  938.9022m 
  139.00000p  939.4057m  939.5037m  941.3844m  939.3153m 
  140.00000p  939.8162m  939.9001m  941.7188m  939.7284m 
  141.00000p  940.2267m  940.2966m  942.0533m  940.1415m 
  142.00000p  940.6372m  940.6931m  942.3877m  940.5547m 
  143.00000p  941.0477m  941.0895m  942.7222m  940.9678m 
  144.00000p  941.4582m  941.4860m  943.0566m  941.3809m 
  145.00000p  941.8687m  941.8825m  943.3911m  941.7940m 
  146.00000p  942.2792m  942.2789m  943.7255m  942.2071m 
  147.00000p  942.6897m  942.6754m  944.0600m  942.6202m 
  148.00000p  943.1002m  943.0719m  944.3944m  943.0333m 
  149.00000p  943.5107m  943.4683m  944.7289m  943.4464m 
  150.00000p  943.9212m  943.8648m  945.0633m  943.8595m 
  151.00000p  944.3317m  944.2613m  945.3978m  944.2727m 
  152.00000p  944.7422m  944.6577m  945.7322m  944.6858m 
  153.00000p  944.9329m  944.8441m  945.8866m  944.8782m 
  154.00000p  945.0678m  944.9771m  945.9952m  945.0146m 
  155.00000p  945.2026m  945.1100m  946.1038m  945.1510m 
  156.00000p  945.3375m  945.2430m  946.2125m  945.2873m 
  157.00000p  945.4723m  945.3760m  946.3211m  945.4237m 
  158.00000p  945.6072m  945.5089m  946.4297m  945.5600m 
  159.00000p  945.7420m  945.6419m  946.5383m  945.6964m 
  160.00000p  945.8768m  945.7748m  946.6469m  945.8328m 
  161.00000p  946.0117m  945.9078m  946.7555m  945.9691m 
  162.00000p  946.1465m  946.0408m  946.8641m  946.1055m 
  163.00000p  946.2814m  946.1737m  946.9727m  946.2419m 
  164.00000p  946.4162m  946.3067m  947.0813m  946.3782m 
  165.00000p  946.5511m  946.4397m  947.1899m  946.5146m 
  166.00000p  946.6859m  946.5726m  947.2986m  946.6509m 
  167.00000p  946.8208m  946.7056m  947.4072m  946.7873m 
  168.00000p  946.9556m  946.8386m  947.5158m  946.9237m 
  169.00000p  947.0904m  946.9715m  947.6244m  947.0600m 
  170.00000p  947.2253m  947.1045m  947.7330m  947.1964m 
  171.00000p  947.3601m  947.2374m  947.8416m  947.3328m 
  172.00000p  947.4950m  947.3704m  947.9502m  947.4691m 
  173.00000p  947.6298m  947.5034m  948.0588m  947.6055m 
  174.00000p  947.7647m  947.6363m  948.1674m  947.7419m 
  175.00000p  947.8995m  947.7693m  948.2761m  947.8782m 
  176.00000p  948.0344m  947.9023m  948.3847m  948.0146m 
  177.00000p  948.1692m  948.0352m  948.4933m  948.1509m 
  178.00000p  948.3040m  948.1682m  948.6019m  948.2873m 
  179.00000p  948.4389m  948.3011m  948.7105m  948.4237m 
  180.00000p  948.5737m  948.4341m  948.8191m  948.5600m 
  181.00000p  948.6744m  948.5331m  948.9006m  948.6618m 
  182.00000p  948.7067m  948.5643m  948.9279m  948.6945m 
  183.00000p  948.7391m  948.5954m  948.9552m  948.7273m 
  184.00000p  948.7714m  948.6266m  948.9825m  948.7600m 
  185.00000p  948.8038m  948.6577m  949.0098m  948.7927m 
  186.00000p  948.8361m  948.6889m  949.0371m  948.8254m 
  187.00000p  948.8684m  948.7201m  949.0644m  948.8582m 
  188.00000p  948.9008m  948.7512m  949.0917m  948.8909m 
  189.00000p  948.9331m  948.7824m  949.1190m  948.9236m 
  190.00000p  948.9655m  948.8135m  949.1463m  948.9564m 
  191.00000p  948.9978m  948.8447m  949.1736m  948.9891m 
  192.00000p  949.0302m  948.8759m  949.2009m  949.0218m 
  193.00000p  949.0625m  948.9070m  949.2282m  949.0545m 
  194.00000p  949.0949m  948.9382m  949.2555m  949.0873m 
  195.00000p  949.1272m  948.9693m  949.2828m  949.1200m 
  196.00000p  949.1595m  949.0005m  949.3100m  949.1527m 
  197.00000p  949.1919m  949.0317m  949.3373m  949.1854m 
  198.00000p  949.2242m  949.0628m  949.3646m  949.2182m 
  199.00000p  949.2566m  949.0940m  949.3919m  949.2509m 
  200.00000p  949.2889m  949.1251m  949.4192m  949.2836m 
  201.00000p  949.3213m  949.1563m  949.4465m  949.3164m 
  202.00000p  949.3536m  949.1875m  949.4738m  949.3491m 
  203.00000p  949.3860m  949.2186m  949.5011m  949.3818m 
  204.00000p  949.4183m  949.2498m  949.5284m  949.4145m 
  205.00000p  949.4506m  949.2809m  949.5557m  949.4473m 
  206.00000p  949.4830m  949.3121m  949.5830m  949.4800m 
  207.00000p  949.5153m  949.3433m  949.6103m  949.5127m 
  208.00000p  949.5477m  949.3744m  949.6376m  949.5454m 
  209.00000p  949.5800m  949.4056m  949.6649m  949.5782m 
  210.00000p  949.6124m  949.4367m  949.6922m  949.6109m 
  211.00000p  949.6447m  949.4679m  949.7195m  949.6436m 
  212.00000p  949.6771m  949.4991m  949.7468m  949.6764m 
  213.00000p  949.7094m  949.5302m  949.7741m  949.7091m 
  214.00000p  949.7417m  949.5614m  949.8014m  949.7418m 
  215.00000p  949.7741m  949.5925m  949.8287m  949.7745m 
  216.00000p  949.7879m  949.6070m  949.8398m  949.7887m 
  217.00000p  949.7923m  949.6128m  949.8425m  949.7933m 
  218.00000p  949.7966m  949.6187m  949.8452m  949.7979m 
  219.00000p  949.8009m  949.6246m  949.8479m  949.8025m 
  220.00000p  949.8052m  949.6304m  949.8506m  949.8071m 
  221.00000p  949.8096m  949.6363m  949.8533m  949.8117m 
  222.00000p  949.8139m  949.6422m  949.8560m  949.8163m 
  223.00000p  949.8182m  949.6480m  949.8587m  949.8209m 
  224.00000p  949.8225m  949.6539m  949.8614m  949.8255m 
  225.00000p  949.8269m  949.6597m  949.8641m  949.8301m 
  226.00000p  949.8312m  949.6656m  949.8668m  949.8347m 
  227.00000p  949.8355m  949.6715m  949.8695m  949.8393m 
  228.00000p  949.8398m  949.6773m  949.8722m  949.8439m 
  229.00000p  949.8442m  949.6832m  949.8749m  949.8485m 
  230.00000p  949.8485m  949.6891m  949.8776m  949.8530m 
  231.00000p  949.8528m  949.6949m  949.8803m  949.8576m 
  232.00000p  949.8571m  949.7008m  949.8831m  949.8622m 
  233.00000p  949.8615m  949.7066m  949.8858m  949.8668m 
  234.00000p  949.8658m  949.7125m  949.8885m  949.8714m 
  235.00000p  949.8701m  949.7184m  949.8912m  949.8760m 
  236.00000p  949.8744m  949.7242m  949.8939m  949.8806m 
  237.00000p  949.8788m  949.7301m  949.8966m  949.8852m 
  238.00000p  949.8831m  949.7360m  949.8993m  949.8898m 
  239.00000p  949.8874m  949.7418m  949.9020m  949.8944m 
  240.00000p  949.8917m  949.7477m  949.9047m  949.8990m 
  241.00000p  949.8961m  949.7535m  949.9074m  949.9036m 
  242.00000p  949.9004m  949.7594m  949.9101m  949.9082m 
  243.00000p  949.9047m  949.7653m  949.9128m  949.9128m 
  244.00000p  949.9091m  949.7711m  949.9155m  949.9174m 
  245.00000p  949.9134m  949.7770m  949.9182m  949.9220m 
  246.00000p  949.9177m  949.7829m  949.9209m  949.9266m 
  247.00000p  949.9220m  949.7887m  949.9236m  949.9312m 
  248.00000p  949.9264m  949.7946m  949.9263m  949.9358m 
  249.00000p  950.1708m  950.0546m  950.3121m  950.1536m 
  250.00000p  951.0325m  950.9684m  951.6831m  950.9195m 
  251.00000p  951.8942m  951.8821m  953.0540m  951.6855m 
  252.00000p  952.7559m  952.7958m  954.4249m  952.4515m 
  253.00000p  953.6177m  953.7095m  955.7958m  953.2174m 
  254.00000p  954.4794m  954.6233m  957.1668m  953.9834m 
  255.00000p  955.3419m  955.5377m  958.5275m  954.7520m 
  256.00000p  956.2294m  956.4756m  959.5598m  955.6060m 
  257.00000p  957.1170m  957.4134m  960.5921m  956.4601m 
  258.00000p  958.0155m  958.3539m  961.5370m  957.3604m 
  259.00000p  958.9202m  959.2960m  962.4323m  958.2870m 
  260.00000p  959.8249m  960.2382m  963.3277m  959.2136m 
  261.00000p  960.7296m  961.1803m  964.2230m  960.1402m 
  262.00000p  961.6343m  962.1224m  965.1183m  961.0668m 
  263.00000p  962.5390m  963.0645m  966.0136m  961.9934m 
  264.00000p  963.4437m  964.0066m  966.9089m  962.9200m 
  265.00000p  964.3484m  964.9487m  967.8042m  963.8466m 
  266.00000p  964.8154m  963.8645m  968.2011m  964.0740m 
  267.00000p  965.2754m  962.7477m  968.5899m  964.2902m 
  268.00000p  965.7353m  961.6308m  968.9786m  964.5064m 
  269.00000p  966.1953m  960.5140m  969.3674m  964.7226m 
  270.00000p  966.6552m  959.3972m  969.7562m  964.9388m 
  271.00000p  967.1152m  958.2803m  970.1450m  965.1550m 
  272.00000p  967.5751m  957.1635m  970.5338m  965.3712m 
  273.00000p  968.0351m  956.0467m  970.9226m  965.5874m 
  274.00000p  968.4950m  954.9298m  971.3114m  965.8035m 
  275.00000p  968.9549m  953.8130m  971.7002m  966.0197m 
