 ****** PrimeSim HSPICE -- T-2022.06-SP1 linux64 (Aug 19 2022 7764626) ******
  Copyright (c) 1986 - 2023 by Synopsys, Inc. All Rights Reserved.
  This software and the associated documentation are proprietary
  to Synopsys, Inc. This software may only be used in accordance
  with the terms and conditions of a written license agreement with
  Synopsys, Inc. All other use, reproduction, or distribution of
  this software is strictly prohibited.
  Input File: sram_writelh_power.sp                                             
  Command line options: /opt/synopsys/hspice/T-2022.06-SP1/hspice/linux64/hspice sram_writelh_power.sp
  Start time: Fri Jun 30 23:56:20 2023
 lic:  
 lic: FLEXlm: SDK_12.11.1 
 lic: USER:   yc2367               HOSTNAME: beluga 
 lic: HOSTID: 54802750             PID:      8796 
 lic: Using FLEXlm license file: 
 lic: 27000@flex.ece.cornell.edu 
 lic: Checkout 1 hspice 
 lic: License/Maintenance for hspice will expire on 09-jan-2025/2022.06 
 lic: 1(in_use)/50(total) FLOATING license(s) on SERVER 27000@flex.ece.cornell.edu 
 lic:   
  **info** (sram_writelh_power.sp:18) DC voltage reset to initial transient source value in source 0:vdatain. new dc=0.9500D+00
  **warning** (sram_writelh_power.sp:18) pulse rise time is  < or = zero, reset to tstep
  **warning** (sram_writelh_power.sp:18) pulse fall time is  < or = zero, reset to tstep
  **warning** (nmos:xtgate1.mntgate (../basic_subcircuits.l:206)) Warning:  Acde = 0.245565 may be too small in BSIM4 model with w=2e-07 l=2.2e-08.
  **warning** (sram_writelh_power.sp:1720) Unable to find referenced node xprechargesa.n_1_2; Output variable ignored. Specify a valid node.
             
 Summary of Linear Res Distribution Info
 ---------------------------------------
 |Range          |Total     |Percent(%)|
 |---------------+----------+----------|
 |1e+00  ~  1e+03|512       |100.0000  |
 ---------------------------------------
              
             
 Summary of Linear Cap Distribution Info
 ---------------------------------------
 |Range          |Total     |Percent(%)|
 |---------------+----------+----------|
 |1e-17  ~  1e-16|1024      |100.0000  |
 ---------------------------------------
              
             
 Summary of Detailed RC Type Statistics
 -------------------------
 |Element Type|Number    |
 |------------+----------|
 |Constant Res|512       |
 |            |          |
 |Constant Cap|1024      |
 -------------------------
              
  

  **warning** the following singular supplies were terminated to 1 meg resistor 
          supply       node1            node2
(../process_data.l:43)vclmomtjn               0:vclmpmtj         defined in subckt 0                     0:0                defined in subckt 0               
(../process_data.l:38)vsupply                 0:vdd              defined in subckt 0                     0:0                defined in subckt 0               
(../process_data.l:42)vrefmtjn                0:vrefmtj          defined in subckt 0                     0:0                defined in subckt 0               
(../process_data.l:41)vsram                   0:vsram            defined in subckt 0                     0:0                defined in subckt 0               
(../process_data.l:44)vsram_n                 0:vsram_n          defined in subckt 0                     0:0                defined in subckt 0               
      
 **info** set option symb=1 internally to help for convergence.
 *****************************************************************
 ******  option summary
 ******
 runlvl  = 3         bypass  = 2.0000    
 **info** dc convergence successful at Newton-Raphson method 

   *** data name = sweep_data , index =     1 ***

 ******
 .title sram write power measurement circuit

 ****** transient analysis tnom=  25.000 temp=  25.000 ******
x

 time         voltage    voltage    voltage    voltage   
             tgate_l    tgate_r    n_bl_0     n_bl_64    
    0.        819.3235m   25.4554m  949.9989m  937.1808m 
    1.00000p  794.0401m   27.8441m  926.7701m  928.3424m 
    2.00000p  824.7010m   35.1315m  913.1647m  916.9705m 
    3.00000p  844.6469m   39.5479m  904.8399m  906.9504m 
    4.00000p  860.1917m   42.8972m  897.9474m  898.4091m 
    5.00000p  868.1933m   44.5496m  893.2223m  892.8634m 
    6.00000p  876.1949m   46.2020m  888.4972m  887.3178m 
    7.00000p  881.0538m   47.1625m  884.9551m  883.3252m 
    8.00000p  882.7117m   47.4181m  882.6177m  880.9147m 
    9.00000p  884.3696m   47.6738m  880.2804m  878.5041m 
   10.00000p  886.0275m   47.9295m  877.9431m  876.0935m 
   11.00000p  885.7582m   47.5459m  876.6126m  874.9266m 
   12.00000p  885.2056m   47.0682m  875.4300m  873.9424m 
   13.00000p  884.6530m   46.5906m  874.2474m  872.9583m 
   14.00000p  884.1004m   46.1130m  873.0649m  871.9742m 
   15.00000p  883.5478m   45.6354m  871.8823m  870.9900m 
   16.00000p  882.8811m   45.3992m  871.1225m  870.3647m 
   17.00000p  882.1715m   45.2539m  870.5216m  869.8742m 
   18.00000p  881.4619m   45.1086m  869.9208m  869.3837m 
   19.00000p  880.7523m   44.9633m  869.3199m  868.8933m 
   20.00000p  880.0427m   44.8179m  868.7190m  868.4028m 
   21.00000p  879.3330m   44.6726m  868.1182m  867.9123m 
   22.00000p  878.6317m   44.5636m  867.5189m  867.4229m 
   23.00000p  878.1539m   45.4383m  866.9635m  866.9606m 
   24.00000p  877.6761m   46.3130m  866.4081m  866.4982m 
   25.00000p  877.1983m   47.1878m  865.8527m  866.0359m 
   26.00000p  876.7205m   48.0625m  865.2973m  865.5736m 
   27.00000p  876.2427m   48.9372m  864.7419m  865.1113m 
   28.00000p  875.7649m   49.8120m  864.1864m  864.6490m 
   29.00000p  875.2478m   51.2530m  863.5230m  864.0902m 
   30.00000p  874.5622m   55.1126m  862.3979m  863.1192m 
   31.00000p  873.8767m   58.9723m  861.2728m  862.1482m 
   32.00000p  873.1912m   62.8320m  860.1477m  861.1772m 
   33.00000p  872.5057m   66.6916m  859.0226m  860.2062m 
   34.00000p  871.8202m   70.5513m  857.8975m  859.2352m 
   35.00000p  871.1347m   74.4109m  856.7724m  858.2643m 
   36.00000p  869.9772m   81.6599m  855.0867m  856.7461m 
   37.00000p  868.4425m   91.6181m  852.9528m  854.7905m 
   38.00000p  866.9077m  101.5763m  850.8189m  852.8348m 
   39.00000p  865.3730m  111.5345m  848.6850m  850.8792m 
   40.00000p  863.8382m  121.4927m  846.5511m  848.9236m 
   41.00000p  862.3035m  131.4509m  844.4172m  846.9680m 
   42.00000p  860.7688m  141.4090m  842.2833m  845.0124m 
   43.00000p  859.1220m  151.9460m  840.0646m  842.9665m 
   44.00000p  856.4193m  167.9366m  837.0472m  840.0706m 
   45.00000p  853.7167m  183.9272m  834.0297m  837.1746m 
   46.00000p  851.0141m  199.9178m  831.0122m  834.2787m 
   47.00000p  848.3115m  215.9084m  827.9947m  831.3827m 
   48.00000p  845.6088m  231.8990m  824.9772m  828.4868m 
   49.00000p  842.9062m  247.8896m  821.9597m  825.5909m 
   50.00000p  840.2036m  263.8802m  818.9422m  822.6949m 
   51.00000p  837.5895m  281.7377m  818.2843m  820.9103m 
   52.00000p  835.0428m  299.3878m  817.5964m  819.2620m 
   53.00000p  832.7020m  316.3442m  816.9057m  817.9833m 
   54.00000p  830.8867m  331.2492m  816.6214m  817.4324m 
   55.00000p  829.0714m  346.1542m  816.3371m  816.8815m 
   56.00000p  827.2561m  361.0592m  816.0527m  816.3306m 
   57.00000p  825.6589m  375.9891m  815.9891m  815.9988m 
   58.00000p  824.7713m  391.0002m  816.6437m  816.3802m 
   59.00000p  823.8838m  406.0114m  817.2984m  816.7616m 
   60.00000p  822.9962m  421.0225m  817.9530m  817.1429m 
   61.00000p  822.1541m  436.2081m  818.6431m  817.5625m 
   62.00000p  822.4603m  455.8016m  820.2282m  818.9449m 
   63.00000p  822.7664m  475.3951m  821.8132m  820.3273m 
   64.00000p  823.0726m  494.9885m  823.3983m  821.7098m 
   65.00000p  823.3788m  514.5820m  824.9834m  823.0922m 
   66.00000p  823.6849m  534.1755m  826.5685m  824.4747m 
   67.00000p  824.3249m  554.0452m  828.3672m  826.0923m 
   68.00000p  825.8144m  574.6179m  830.7094m  828.3084m 
   69.00000p  827.3039m  595.1907m  833.0517m  830.5246m 
   70.00000p  828.7934m  615.7634m  835.3939m  832.7407m 
   71.00000p  830.2829m  636.3362m  837.7362m  834.9568m 
   72.00000p  831.7724m  656.9089m  840.0784m  837.1730m 
   73.00000p  833.7219m  674.0488m  842.6120m  839.6347m 
   74.00000p  836.0093m  688.6663m  845.2862m  842.2767m 
   75.00000p  838.2966m  703.2838m  847.9604m  844.9188m 
   76.00000p  840.5840m  717.9013m  850.6346m  847.5609m 
   77.00000p  842.8714m  732.5188m  853.3088m  850.2030m 
   78.00000p  845.1588m  747.1363m  855.9830m  852.8451m 
   79.00000p  847.4461m  761.7537m  858.6572m  855.4871m 
   80.00000p  849.7335m  776.3712m  861.3314m  858.1292m 
   81.00000p  852.3235m  785.2088m  863.9813m  860.7980m 
   82.00000p  854.9553m  793.2456m  866.6279m  863.4704m 
   83.00000p  857.5872m  801.2825m  869.2744m  866.1429m 
   84.00000p  860.2190m  809.3193m  871.9210m  868.8154m 
   85.00000p  862.8509m  817.3562m  874.5675m  871.4878m 
   86.00000p  865.4827m  825.3930m  877.2141m  874.1603m 
   87.00000p  868.1145m  833.4299m  879.8607m  876.8327m 
   88.00000p  870.7464m  841.4667m  882.5072m  879.5052m 
   89.00000p  873.3160m  848.6990m  885.0410m  882.0747m 
   90.00000p  875.6361m  852.7031m  887.1225m  884.2311m 
   91.00000p  877.9563m  856.7073m  889.2039m  886.3875m 
   92.00000p  880.2764m  860.7114m  891.2854m  888.5439m 
   93.00000p  882.5965m  864.7156m  893.3668m  890.7003m 
   94.00000p  884.9166m  868.7197m  895.4482m  892.8568m 
   95.00000p  887.2367m  872.7239m  897.5297m  895.0132m 
   96.00000p  889.5568m  876.7280m  899.6111m  897.1696m 
   97.00000p  891.8769m  880.7322m  901.6925m  899.3260m 
   98.00000p  894.1970m  884.7363m  903.7740m  901.4824m 
   99.00000p  896.5171m  888.7405m  905.8554m  903.6388m 
  100.00000p  898.8372m  892.7446m  907.9369m  905.7952m 
  101.00000p  901.1573m  896.7488m  910.0183m  907.9516m 
  102.00000p  903.4774m  900.7529m  912.0997m  910.1080m 
  103.00000p  905.2425m  903.0586m  913.5965m  911.6709m 
  104.00000p  906.8563m  904.9013m  914.9339m  913.0721m 
  105.00000p  908.4702m  906.7440m  916.2713m  914.4732m 
  106.00000p  910.0840m  908.5868m  917.6087m  915.8744m 
  107.00000p  911.6979m  910.4295m  918.9460m  917.2755m 
  108.00000p  913.3117m  912.2722m  920.2834m  918.6766m 
  109.00000p  914.9256m  914.1149m  921.6208m  920.0778m 
  110.00000p  916.5394m  915.9577m  922.9582m  921.4789m 
  111.00000p  918.1533m  917.8004m  924.2956m  922.8800m 
  112.00000p  919.7671m  919.6431m  925.6330m  924.2812m 
  113.00000p  921.3810m  921.4858m  926.9704m  925.6823m 
  114.00000p  922.8858m  923.1842m  928.2141m  926.9865m 
  115.00000p  923.7949m  924.0935m  928.9459m  927.7607m 
  116.00000p  924.7041m  925.0029m  929.6777m  928.5349m 
  117.00000p  925.6132m  925.9122m  930.4095m  929.3091m 
  118.00000p  926.5223m  926.8216m  931.1413m  930.0832m 
  119.00000p  927.4314m  927.7309m  931.8732m  930.8574m 
  120.00000p  928.3405m  928.6402m  932.6050m  931.6316m 
  121.00000p  929.2496m  929.5496m  933.3368m  932.4058m 
  122.00000p  930.1587m  930.4589m  934.0686m  933.1800m 
  123.00000p  931.0679m  931.3683m  934.8004m  933.9542m 
  124.00000p  931.9770m  932.2776m  935.5322m  934.7284m 
  125.00000p  932.8861m  933.1869m  936.2640m  935.5026m 
  126.00000p  933.7952m  934.0963m  936.9958m  936.2768m 
  127.00000p  934.7043m  935.0056m  937.7276m  937.0509m 
  128.00000p  935.6134m  935.9150m  938.4595m  937.8251m 
  129.00000p  936.5226m  936.8243m  939.1913m  938.5993m 
  130.00000p  937.4317m  937.7336m  939.9231m  939.3735m 
  131.00000p  938.0509m  938.3417m  940.4207m  939.8987m 
  132.00000p  938.4413m  938.7119m  940.7335m  940.2274m 
  133.00000p  938.8316m  939.0822m  941.0463m  940.5561m 
  134.00000p  939.2220m  939.4524m  941.3591m  940.8848m 
  135.00000p  939.6124m  939.8226m  941.6718m  941.2134m 
  136.00000p  940.0028m  940.1928m  941.9846m  941.5421m 
  137.00000p  940.3931m  940.5630m  942.2974m  941.8708m 
  138.00000p  940.7835m  940.9333m  942.6102m  942.1995m 
  139.00000p  941.1739m  941.3035m  942.9229m  942.5281m 
  140.00000p  941.5643m  941.6737m  943.2357m  942.8568m 
  141.00000p  941.9546m  942.0439m  943.5485m  943.1855m 
  142.00000p  942.3450m  942.4141m  943.8613m  943.5142m 
  143.00000p  942.7354m  942.7844m  944.1740m  943.8429m 
  144.00000p  943.1257m  943.1546m  944.4868m  944.1715m 
  145.00000p  943.5161m  943.5248m  944.7996m  944.5002m 
  146.00000p  943.9065m  943.8950m  945.1124m  944.8289m 
  147.00000p  944.2969m  944.2653m  945.4251m  945.1576m 
  148.00000p  944.6872m  944.6355m  945.7379m  945.4862m 
  149.00000p  945.0776m  945.0057m  946.0507m  945.8149m 
  150.00000p  945.4680m  945.3759m  946.3635m  946.1436m 
  151.00000p  945.6056m  945.5087m  946.4729m  946.2602m 
  152.00000p  945.7273m  945.6266m  946.5695m  946.3635m 
  153.00000p  945.8490m  945.7445m  946.6661m  946.4668m 
  154.00000p  945.9707m  945.8625m  946.7628m  946.5701m 
  155.00000p  946.0925m  945.9804m  946.8594m  946.6734m 
  156.00000p  946.2142m  946.0983m  946.9560m  946.7767m 
  157.00000p  946.3359m  946.2162m  947.0527m  946.8800m 
  158.00000p  946.4577m  946.3341m  947.1493m  946.9833m 
  159.00000p  946.5794m  946.4520m  947.2459m  947.0866m 
  160.00000p  946.7011m  946.5699m  947.3426m  947.1899m 
  161.00000p  946.8228m  946.6879m  947.4392m  947.2932m 
  162.00000p  946.9446m  946.8058m  947.5358m  947.3965m 
  163.00000p  947.0663m  946.9237m  947.6325m  947.4998m 
  164.00000p  947.1880m  947.0416m  947.7291m  947.6031m 
  165.00000p  947.3098m  947.1595m  947.8258m  947.7063m 
  166.00000p  947.4315m  947.2774m  947.9224m  947.8096m 
  167.00000p  947.5532m  947.3953m  948.0190m  947.9129m 
  168.00000p  947.6749m  947.5132m  948.1157m  948.0162m 
  169.00000p  947.7967m  947.6312m  948.2123m  948.1195m 
  170.00000p  947.9184m  947.7491m  948.3089m  948.2228m 
  171.00000p  948.0401m  947.8670m  948.4056m  948.3261m 
  172.00000p  948.1619m  947.9849m  948.5022m  948.4294m 
  173.00000p  948.2836m  948.1028m  948.5988m  948.5327m 
  174.00000p  948.4053m  948.2207m  948.6955m  948.6360m 
  175.00000p  948.5270m  948.3386m  948.7921m  948.7393m 
  176.00000p  948.6488m  948.4565m  948.8887m  948.8426m 
  177.00000p  948.7705m  948.5745m  948.9854m  948.9459m 
  178.00000p  948.8922m  948.6924m  949.0820m  949.0492m 
  179.00000p  948.9236m  948.7233m  949.1081m  949.0760m 
  180.00000p  948.9502m  948.7495m  949.1304m  949.0987m 
  181.00000p  948.9768m  948.7758m  949.1528m  949.1214m 
  182.00000p  949.0034m  948.8021m  949.1751m  949.1441m 
  183.00000p  949.0300m  948.8284m  949.1974m  949.1668m 
  184.00000p  949.0565m  948.8546m  949.2198m  949.1895m 
  185.00000p  949.0831m  948.8809m  949.2421m  949.2121m 
  186.00000p  949.1097m  948.9072m  949.2644m  949.2348m 
  187.00000p  949.1363m  948.9335m  949.2868m  949.2575m 
  188.00000p  949.1629m  948.9598m  949.3091m  949.2802m 
  189.00000p  949.1895m  948.9860m  949.3314m  949.3029m 
  190.00000p  949.2161m  949.0123m  949.3538m  949.3256m 
  191.00000p  949.2427m  949.0386m  949.3761m  949.3483m 
  192.00000p  949.2693m  949.0649m  949.3984m  949.3710m 
  193.00000p  949.2958m  949.0911m  949.4208m  949.3937m 
  194.00000p  949.3224m  949.1174m  949.4431m  949.4164m 
  195.00000p  949.3490m  949.1437m  949.4655m  949.4391m 
  196.00000p  949.3756m  949.1700m  949.4878m  949.4618m 
  197.00000p  949.4022m  949.1963m  949.5101m  949.4845m 
  198.00000p  949.4288m  949.2225m  949.5325m  949.5072m 
  199.00000p  949.4554m  949.2488m  949.5548m  949.5299m 
  200.00000p  949.4820m  949.2751m  949.5771m  949.5526m 
  201.00000p  949.5086m  949.3014m  949.5995m  949.5753m 
  202.00000p  949.5351m  949.3276m  949.6218m  949.5980m 
  203.00000p  949.5617m  949.3539m  949.6441m  949.6207m 
  204.00000p  949.5883m  949.3802m  949.6665m  949.6434m 
  205.00000p  949.6149m  949.4065m  949.6888m  949.6661m 
  206.00000p  949.6415m  949.4328m  949.7111m  949.6888m 
  207.00000p  949.6681m  949.4590m  949.7335m  949.7115m 
  208.00000p  949.6947m  949.4853m  949.7558m  949.7341m 
  209.00000p  949.7213m  949.5116m  949.7781m  949.7568m 
  210.00000p  949.7478m  949.5379m  949.8005m  949.7795m 
  211.00000p  949.7744m  949.5641m  949.8228m  949.8022m 
  212.00000p  949.7998m  949.5893m  949.8441m  949.8239m 
  213.00000p  949.8029m  949.5940m  949.8460m  949.8267m 
  214.00000p  949.8061m  949.5987m  949.8480m  949.8296m 
  215.00000p  949.8092m  949.6035m  949.8500m  949.8324m 
  216.00000p  949.8124m  949.6082m  949.8519m  949.8352m 
  217.00000p  949.8156m  949.6130m  949.8539m  949.8381m 
  218.00000p  949.8187m  949.6177m  949.8559m  949.8409m 
  219.00000p  949.8219m  949.6224m  949.8579m  949.8438m 
  220.00000p  949.8250m  949.6272m  949.8598m  949.8466m 
  221.00000p  949.8282m  949.6319m  949.8618m  949.8494m 
  222.00000p  949.8314m  949.6366m  949.8638m  949.8523m 
  223.00000p  949.8345m  949.6414m  949.8657m  949.8551m 
  224.00000p  949.8377m  949.6461m  949.8677m  949.8580m 
  225.00000p  949.8408m  949.6508m  949.8697m  949.8608m 
  226.00000p  949.8440m  949.6556m  949.8716m  949.8637m 
  227.00000p  949.8471m  949.6603m  949.8736m  949.8665m 
  228.00000p  949.8503m  949.6651m  949.8756m  949.8693m 
  229.00000p  949.8535m  949.6698m  949.8776m  949.8722m 
  230.00000p  949.8566m  949.6745m  949.8795m  949.8750m 
  231.00000p  949.8598m  949.6793m  949.8815m  949.8779m 
  232.00000p  949.8629m  949.6840m  949.8835m  949.8807m 
  233.00000p  949.8661m  949.6887m  949.8854m  949.8836m 
  234.00000p  949.8693m  949.6935m  949.8874m  949.8864m 
  235.00000p  949.8724m  949.6982m  949.8894m  949.8892m 
  236.00000p  949.8756m  949.7029m  949.8914m  949.8921m 
  237.00000p  949.8787m  949.7077m  949.8933m  949.8949m 
  238.00000p  949.8819m  949.7124m  949.8953m  949.8978m 
  239.00000p  949.8850m  949.7172m  949.8973m  949.9006m 
  240.00000p  949.8882m  949.7219m  949.8992m  949.9035m 
  241.00000p  949.8914m  949.7266m  949.9012m  949.9063m 
  242.00000p  949.8945m  949.7314m  949.9032m  949.9091m 
  243.00000p  949.8977m  949.7361m  949.9051m  949.9120m 
  244.00000p  949.9008m  949.7408m  949.9071m  949.9148m 
  245.00000p  949.9040m  949.7456m  949.9091m  949.9177m 
  246.00000p  949.9072m  949.7503m  949.9111m  949.9205m 
  247.00000p  949.9103m  949.7551m  949.9130m  949.9234m 
  248.00000p  949.9135m  949.7598m  949.9150m  949.9262m 
  249.00000p  949.9166m  949.7645m  949.9170m  949.9290m 
  250.00000p  949.9198m  949.7693m  949.9189m  949.9319m 
  251.00000p  950.3095m  950.1841m  950.5370m  950.4563m 
  252.00000p  951.0858m  951.0090m  951.7713m  951.5022m 
  253.00000p  951.8620m  951.8339m  953.0055m  952.5481m 
  254.00000p  952.6383m  952.6588m  954.2397m  953.5940m 
  255.00000p  953.4146m  953.4837m  955.4739m  954.6399m 
  256.00000p  954.1908m  954.3087m  956.7082m  955.6858m 
  257.00000p  954.9805m  955.1474m  957.8910m  956.7334m 
  258.00000p  955.8105m  956.0275m  958.9197m  957.7862m 
  259.00000p  956.6405m  956.9077m  959.9485m  958.8390m 
  260.00000p  957.5267m  957.8403m  960.9172m  959.8257m 
  261.00000p  958.4362m  958.7947m  961.8610m  960.7850m 
  262.00000p  959.3456m  959.7490m  962.8048m  961.7443m 
  263.00000p  960.2551m  960.7034m  963.7487m  962.7035m 
  264.00000p  961.1646m  961.6578m  964.6925m  963.6628m 
  265.00000p  962.0741m  962.6122m  965.6363m  964.6221m 
  266.00000p  962.9836m  963.5666m  966.5801m  965.5814m 
  267.00000p  963.8931m  964.5209m  967.5240m  966.5406m 
  268.00000p  964.3608m  963.6632m  967.9077m  966.8563m 
  269.00000p  964.4932m  961.4304m  967.8663m  966.6837m 
  270.00000p  964.6255m  959.1975m  967.8249m  966.5110m 
  271.00000p  964.7579m  956.9646m  967.7835m  966.3383m 
  272.00000p  964.8903m  954.7317m  967.7421m  966.1656m 
  273.00000p  965.0227m  952.4989m  967.7007m  965.9929m 
  274.00000p  965.1550m  950.2660m  967.6593m  965.8202m 
  275.00000p  965.2874m  948.0331m  967.6179m  965.6475m 
