 ****** PrimeSim HSPICE -- T-2022.06-SP1 linux64 (Aug 19 2022 7764626) ******
  Copyright (c) 1986 - 2023 by Synopsys, Inc. All Rights Reserved.
  This software and the associated documentation are proprietary
  to Synopsys, Inc. This software may only be used in accordance
  with the terms and conditions of a written license agreement with
  Synopsys, Inc. All other use, reproduction, or distribution of
  this software is strictly prohibited.
  Input File: sram_writep_power.sp                                              
  Command line options: /opt/synopsys/hspice/T-2022.06-SP1/hspice/linux64/hspice sram_writep_power.sp
  Start time: Fri Jun 30 23:56:24 2023
 lic:  
 lic: FLEXlm: SDK_12.11.1 
 lic: USER:   yc2367               HOSTNAME: beluga 
 lic: HOSTID: 54802750             PID:      8839 
 lic: Using FLEXlm license file: 
 lic: 27000@flex.ece.cornell.edu 
 lic: Checkout 1 hspice 
 lic: License/Maintenance for hspice will expire on 09-jan-2025/2022.06 
 lic: 1(in_use)/50(total) FLOATING license(s) on SERVER 27000@flex.ece.cornell.edu 
 lic:   
  **info** (sram_writep_power.sp:18) DC voltage reset to initial transient source value in source 0:vdatain. new dc=0.9500D+00
  **warning** (sram_writep_power.sp:18) pulse rise time is  < or = zero, reset to tstep
  **warning** (sram_writep_power.sp:18) pulse fall time is  < or = zero, reset to tstep
  **warning** (nmos:xtgate1.mntgate (../basic_subcircuits.l:206)) Warning:  Acde = 0.245565 may be too small in BSIM4 model with w=2e-07 l=2.2e-08.
  **warning** (sram_writep_power.sp:1720) Unable to find referenced node xprechargesa.n_1_2; Output variable ignored. Specify a valid node.
             
 Summary of Linear Res Distribution Info
 ---------------------------------------
 |Range          |Total     |Percent(%)|
 |---------------+----------+----------|
 |1e+00  ~  1e+03|512       |100.0000  |
 ---------------------------------------
              
             
 Summary of Linear Cap Distribution Info
 ---------------------------------------
 |Range          |Total     |Percent(%)|
 |---------------+----------+----------|
 |1e-17  ~  1e-16|1024      |100.0000  |
 ---------------------------------------
              
             
 Summary of Detailed RC Type Statistics
 -------------------------
 |Element Type|Number    |
 |------------+----------|
 |Constant Res|512       |
 |            |          |
 |Constant Cap|1024      |
 -------------------------
              
  

  **warning** the following singular supplies were terminated to 1 meg resistor 
          supply       node1            node2
(../process_data.l:43)vclmomtjn               0:vclmpmtj         defined in subckt 0                     0:0                defined in subckt 0               
(../process_data.l:38)vsupply                 0:vdd              defined in subckt 0                     0:0                defined in subckt 0               
(../process_data.l:42)vrefmtjn                0:vrefmtj          defined in subckt 0                     0:0                defined in subckt 0               
(../process_data.l:41)vsram                   0:vsram            defined in subckt 0                     0:0                defined in subckt 0               
(../process_data.l:44)vsram_n                 0:vsram_n          defined in subckt 0                     0:0                defined in subckt 0               
      
 **info** set option symb=1 internally to help for convergence.
 *****************************************************************
 ******  option summary
 ******
 runlvl  = 3         bypass  = 2.0000    
 **info** dc convergence successful at Newton-Raphson method 

   *** data name = sweep_data , index =     1 ***

 ******
 .title sram write power measurement circuit

 ****** transient analysis tnom=  25.000 temp=  25.000 ******
x

 time         voltage    voltage    voltage    voltage   
             tgate_l    tgate_r    n_bl_0     n_bl_64    
    0.        949.9992m  434.0635n  949.9997m  937.1816m 
    1.00000p  898.1361m  600.7423u  937.6151m  932.8652m 
    2.00000p  902.0140m    7.2733m  929.2616m  927.0036m 
    3.00000p  904.1036m   12.2202m  923.5288m  921.3537m 
    4.00000p  905.8124m   16.7971m  918.1953m  915.9272m 
    5.00000p  905.9521m   19.8966m  914.3497m  912.1449m 
    6.00000p  906.0918m   22.9960m  910.5040m  908.3626m 
    7.00000p  906.0190m   25.9915m  906.9493m  904.8997m 
    8.00000p  905.1159m   28.5807m  904.5310m  902.6845m 
    9.00000p  904.2127m   31.1700m  902.1127m  900.4692m 
   10.00000p  903.3096m   33.7592m  899.6944m  898.2540m 
   11.00000p  902.2331m   36.2665m  897.6872m  896.4602m 
   12.00000p  900.9475m   38.6749m  896.1759m  895.1747m 
   13.00000p  899.6619m   41.0833m  894.6646m  893.8892m 
   14.00000p  898.3763m   43.4917m  893.1533m  892.6037m 
   15.00000p  897.0907m   45.9001m  891.6420m  891.3181m 
   16.00000p  895.8135m   48.1020m  890.1717m  890.0632m 
   17.00000p  894.6234m   48.1921m  889.1213m  889.1210m 
   18.00000p  893.4332m   48.2821m  888.0709m  888.1788m 
   19.00000p  892.2431m   48.3722m  887.0205m  887.2366m 
   20.00000p  891.0529m   48.4622m  885.9701m  886.2943m 
   21.00000p  889.8627m   48.5522m  884.9197m  885.3521m 
   22.00000p  888.6726m   48.6423m  883.8693m  884.4099m 
   23.00000p  887.5180m   48.8367m  882.7641m  883.4199m 
   24.00000p  886.4070m   49.1592m  881.5916m  882.3711m 
   25.00000p  885.2961m   49.4816m  880.4190m  881.3223m 
   26.00000p  884.1852m   49.8041m  879.2465m  880.2735m 
   27.00000p  883.0742m   50.1266m  878.0739m  879.2247m 
   28.00000p  881.9633m   50.4490m  876.9014m  878.1759m 
   29.00000p  880.5771m   53.5588m  875.1828m  876.6240m 
   30.00000p  879.1099m   57.4901m  873.3033m  874.9238m 
   31.00000p  877.6426m   61.4215m  871.4238m  873.2237m 
   32.00000p  876.1753m   65.3528m  869.5442m  871.5235m 
   33.00000p  874.7080m   69.2841m  867.6647m  869.8233m 
   34.00000p  873.2407m   73.2155m  865.7852m  868.1231m 
   35.00000p  871.6208m   78.3170m  863.7229m  866.2321m 
   36.00000p  869.3823m   88.1613m  860.9198m  863.5674m 
   37.00000p  867.1438m   98.0056m  858.1166m  860.9027m 
   38.00000p  864.9053m  107.8499m  855.3135m  858.2380m 
   39.00000p  862.6667m  117.6942m  852.5104m  855.5733m 
   40.00000p  860.4282m  127.5385m  849.7073m  852.9086m 
   41.00000p  858.1897m  137.3828m  846.9041m  850.2439m 
   42.00000p  855.9512m  147.2271m  844.1010m  847.5792m 
   43.00000p  853.6530m  157.5880m  841.2505m  844.8601m 
   44.00000p  850.6927m  173.6782m  837.8748m  841.5375m 
   45.00000p  847.7324m  189.7684m  834.4990m  838.2150m 
   46.00000p  844.7721m  205.8586m  831.1233m  834.8925m 
   47.00000p  841.8118m  221.9488m  827.7475m  831.5700m 
   48.00000p  838.8515m  238.0390m  824.3718m  828.2475m 
   49.00000p  835.8912m  254.1292m  820.9960m  824.9250m 
   50.00000p  832.9309m  270.2194m  817.6203m  821.6024m 
   51.00000p  830.3779m  287.5263m  816.8432m  819.6741m 
   52.00000p  827.8975m  304.6399m  816.0410m  817.8788m 
   53.00000p  825.6493m  321.1177m  815.2450m  816.4579m 
   54.00000p  824.0544m  335.7155m  814.9123m  815.8304m 
   55.00000p  822.4595m  350.3133m  814.5796m  815.2029m 
   56.00000p  820.8646m  364.9112m  814.2469m  814.5754m 
   57.00000p  819.5920m  380.0099m  814.2168m  814.2550m 
   58.00000p  819.4271m  396.8303m  815.2268m  814.9898m 
   59.00000p  819.2622m  413.6507m  816.2368m  815.7247m 
   60.00000p  819.0973m  430.4710m  817.2468m  816.4596m 
   61.00000p  818.9324m  447.2914m  818.2568m  817.1945m 
   62.00000p  818.7675m  464.1118m  819.2668m  817.9294m 
   63.00000p  818.6026m  480.9322m  820.2768m  818.6642m 
   64.00000p  818.4377m  497.7526m  821.2868m  819.3991m 
   65.00000p  819.6035m  517.5923m  823.3280m  821.2809m 
   66.00000p  820.9905m  537.9338m  825.5406m  823.3533m 
   67.00000p  822.3775m  558.2753m  827.7532m  825.4257m 
   68.00000p  823.7645m  578.6168m  829.9658m  827.4981m 
   69.00000p  825.1515m  598.9582m  832.1784m  829.5705m 
   70.00000p  826.5385m  619.2997m  834.3910m  831.6429m 
   71.00000p  827.9255m  639.6412m  836.6036m  833.7153m 
   72.00000p  829.9389m  655.9873m  839.1212m  836.1591m 
   73.00000p  832.3491m  669.8018m  841.8321m  838.8383m 
   74.00000p  834.7593m  683.6162m  844.5431m  841.5174m 
   75.00000p  837.1695m  697.4307m  847.2540m  844.1966m 
   76.00000p  839.5797m  711.2452m  849.9649m  846.8757m 
   77.00000p  841.9899m  725.0597m  852.6758m  849.5548m 
   78.00000p  844.4001m  738.8741m  855.3868m  852.2340m 
   79.00000p  846.8103m  752.6886m  858.0977m  854.9131m 
   80.00000p  849.2205m  766.5031m  860.8086m  857.5923m 
   81.00000p  851.6307m  780.3176m  863.5196m  860.2714m 
   82.00000p  854.0409m  794.1320m  866.2305m  862.9505m 
   83.00000p  856.4511m  807.9465m  868.9414m  865.6297m 
   84.00000p  859.0700m  816.5047m  871.5663m  868.2880m 
   85.00000p  861.7837m  822.6758m  874.1522m  870.9368m 
   86.00000p  864.4973m  828.8469m  876.7381m  873.5857m 
   87.00000p  867.2110m  835.0181m  879.3240m  876.2345m 
   88.00000p  869.9247m  841.1892m  881.9099m  878.8833m 
   89.00000p  872.6384m  847.3603m  884.4958m  881.5322m 
   90.00000p  875.3521m  853.5315m  887.0817m  884.1810m 
   91.00000p  878.0658m  859.7026m  889.6676m  886.8299m 
   92.00000p  880.6032m  864.9151m  892.0260m  889.2551m 
   93.00000p  882.7871m  868.2051m  893.9283m  891.2319m 
   94.00000p  884.9711m  871.4951m  895.8305m  893.2086m 
   95.00000p  887.1550m  874.7851m  897.7328m  895.1854m 
   96.00000p  889.3390m  878.0751m  899.6351m  897.1622m 
   97.00000p  891.5229m  881.3651m  901.5373m  899.1389m 
   98.00000p  893.7068m  884.6551m  903.4396m  901.1157m 
   99.00000p  895.8908m  887.9451m  905.3419m  903.0924m 
  100.00000p  898.0747m  891.2351m  907.2441m  905.0692m 
  101.00000p  900.2586m  894.5251m  909.1464m  907.0460m 
  102.00000p  902.4426m  897.8151m  911.0487m  909.0227m 
  103.00000p  904.6265m  901.1051m  912.9509m  910.9995m 
  104.00000p  906.8104m  904.3951m  914.8532m  912.9763m 
  105.00000p  908.9944m  907.6851m  916.7554m  914.9530m 
  106.00000p  910.9292m  910.3945m  918.4163m  916.6847m 
  107.00000p  912.3461m  911.8963m  919.5751m  917.9065m 
  108.00000p  913.7629m  913.3981m  920.7338m  919.1284m 
  109.00000p  915.1797m  914.8999m  921.8926m  920.3502m 
  110.00000p  916.5966m  916.4017m  923.0513m  921.5721m 
  111.00000p  918.0134m  917.9035m  924.2101m  922.7940m 
  112.00000p  919.4302m  919.4053m  925.3689m  924.0158m 
  113.00000p  920.8471m  920.9071m  926.5276m  925.2377m 
  114.00000p  922.2639m  922.4089m  927.6864m  926.4596m 
  115.00000p  923.6807m  923.9107m  928.8452m  927.6814m 
  116.00000p  925.0976m  925.4125m  930.0039m  928.9033m 
  117.00000p  926.5144m  926.9143m  931.1627m  930.1251m 
  118.00000p  927.4111m  927.8231m  931.8866m  930.8879m 
  119.00000p  928.1510m  928.5533m  932.4796m  931.5124m 
  120.00000p  928.8910m  929.2834m  933.0726m  932.1368m 
  121.00000p  929.6310m  930.0136m  933.6656m  932.7613m 
  122.00000p  930.3709m  930.7438m  934.2586m  933.3858m 
  123.00000p  931.1109m  931.4739m  934.8515m  934.0103m 
  124.00000p  931.8509m  932.2041m  935.4445m  934.6347m 
  125.00000p  932.5908m  932.9343m  936.0375m  935.2592m 
  126.00000p  933.3308m  933.6644m  936.6305m  935.8837m 
  127.00000p  934.0708m  934.3946m  937.2235m  936.5081m 
  128.00000p  934.8107m  935.1248m  937.8164m  937.1326m 
  129.00000p  935.5507m  935.8549m  938.4094m  937.7571m 
  130.00000p  936.2907m  936.5851m  939.0024m  938.3815m 
  131.00000p  937.0306m  937.3153m  939.5954m  939.0060m 
  132.00000p  937.7706m  938.0454m  940.1884m  939.6305m 
  133.00000p  938.5106m  938.7756m  940.7813m  940.2550m 
  134.00000p  939.2505m  939.5057m  941.3743m  940.8794m 
  135.00000p  939.9905m  940.2359m  941.9673m  941.5039m 
  136.00000p  940.7305m  940.9661m  942.5603m  942.1284m 
  137.00000p  941.4016m  941.6259m  943.0981m  942.6950m 
  138.00000p  941.6759m  941.8802m  943.3179m  942.9285m 
  139.00000p  941.9502m  942.1345m  943.5377m  943.1621m 
  140.00000p  942.2244m  942.3888m  943.7576m  943.3956m 
  141.00000p  942.4987m  942.6431m  943.9774m  943.6291m 
  142.00000p  942.7730m  942.8974m  944.1972m  943.8626m 
  143.00000p  943.0473m  943.1517m  944.4171m  944.0962m 
  144.00000p  943.3216m  943.4060m  944.6369m  944.3297m 
  145.00000p  943.5959m  943.6603m  944.8567m  944.5632m 
  146.00000p  943.8702m  943.9146m  945.0766m  944.7967m 
  147.00000p  944.1445m  944.1689m  945.2964m  945.0302m 
  148.00000p  944.4188m  944.4232m  945.5162m  945.2638m 
  149.00000p  944.6931m  944.6775m  945.7361m  945.4973m 
  150.00000p  944.9674m  944.9318m  945.9559m  945.7308m 
  151.00000p  945.2416m  945.1861m  946.1757m  945.9643m 
  152.00000p  945.5159m  945.4404m  946.3956m  946.1979m 
  153.00000p  945.7902m  945.6947m  946.6154m  946.4314m 
  154.00000p  946.0645m  945.9490m  946.8353m  946.6649m 
  155.00000p  946.3388m  946.2033m  947.0551m  946.8984m 
  156.00000p  946.6131m  946.4576m  947.2749m  947.1320m 
  157.00000p  946.8874m  946.7119m  947.4948m  947.3655m 
  158.00000p  946.9906m  946.8114m  947.5770m  947.4521m 
  159.00000p  947.0698m  946.8892m  947.6400m  947.5180m 
  160.00000p  947.1489m  946.9669m  947.7029m  947.5839m 
  161.00000p  947.2280m  947.0447m  947.7658m  947.6499m 
  162.00000p  947.3072m  947.1224m  947.8288m  947.7158m 
  163.00000p  947.3863m  947.2002m  947.8917m  947.7817m 
  164.00000p  947.4655m  947.2779m  947.9546m  947.8477m 
  165.00000p  947.5446m  947.3557m  948.0175m  947.9136m 
  166.00000p  947.6237m  947.4334m  948.0805m  947.9795m 
  167.00000p  947.7029m  947.5111m  948.1434m  948.0455m 
  168.00000p  947.7820m  947.5889m  948.2063m  948.1114m 
  169.00000p  947.8612m  947.6666m  948.2693m  948.1773m 
  170.00000p  947.9403m  947.7444m  948.3322m  948.2433m 
  171.00000p  948.0194m  947.8221m  948.3951m  948.3092m 
  172.00000p  948.0986m  947.8999m  948.4580m  948.3751m 
  173.00000p  948.1777m  947.9776m  948.5210m  948.4410m 
  174.00000p  948.2569m  948.0554m  948.5839m  948.5070m 
  175.00000p  948.3360m  948.1331m  948.6468m  948.5729m 
  176.00000p  948.4152m  948.2108m  948.7097m  948.6388m 
  177.00000p  948.4943m  948.2886m  948.7727m  948.7048m 
  178.00000p  948.5734m  948.3663m  948.8356m  948.7707m 
  179.00000p  948.6526m  948.4441m  948.8985m  948.8366m 
  180.00000p  948.7317m  948.5218m  948.9615m  948.9026m 
  181.00000p  948.8109m  948.5996m  949.0244m  948.9685m 
  182.00000p  948.8900m  948.6773m  949.0873m  949.0344m 
  183.00000p  948.9691m  948.7551m  949.1502m  949.1004m 
  184.00000p  949.0483m  948.8328m  949.2132m  949.1663m 
  185.00000p  949.1274m  948.9105m  949.2761m  949.2322m 
  186.00000p  949.2066m  948.9883m  949.3390m  949.2982m 
  187.00000p  949.2857m  949.0660m  949.4020m  949.3641m 
  188.00000p  949.3648m  949.1438m  949.4649m  949.4300m 
  189.00000p  949.4440m  949.2215m  949.5278m  949.4959m 
  190.00000p  949.4584m  949.2364m  949.5399m  949.5091m 
  191.00000p  949.4709m  949.2494m  949.5505m  949.5208m 
  192.00000p  949.4834m  949.2624m  949.5610m  949.5324m 
  193.00000p  949.4959m  949.2754m  949.5716m  949.5440m 
  194.00000p  949.5084m  949.2884m  949.5821m  949.5556m 
  195.00000p  949.5208m  949.3014m  949.5927m  949.5672m 
  196.00000p  949.5333m  949.3144m  949.6032m  949.5788m 
  197.00000p  949.5458m  949.3274m  949.6138m  949.5905m 
  198.00000p  949.5583m  949.3404m  949.6243m  949.6021m 
  199.00000p  949.5708m  949.3534m  949.6349m  949.6137m 
  200.00000p  949.5833m  949.3664m  949.6455m  949.6253m 
  201.00000p  949.5957m  949.3794m  949.6560m  949.6369m 
  202.00000p  949.6082m  949.3924m  949.6666m  949.6485m 
  203.00000p  949.6207m  949.4054m  949.6771m  949.6601m 
  204.00000p  949.6332m  949.4184m  949.6877m  949.6718m 
  205.00000p  949.6457m  949.4314m  949.6982m  949.6834m 
  206.00000p  949.6582m  949.4444m  949.7088m  949.6950m 
  207.00000p  949.6706m  949.4574m  949.7193m  949.7066m 
  208.00000p  949.6831m  949.4704m  949.7299m  949.7182m 
  209.00000p  949.6956m  949.4834m  949.7405m  949.7298m 
  210.00000p  949.7081m  949.4964m  949.7510m  949.7414m 
  211.00000p  949.7206m  949.5094m  949.7616m  949.7531m 
  212.00000p  949.7331m  949.5224m  949.7721m  949.7647m 
  213.00000p  949.7456m  949.5354m  949.7827m  949.7763m 
  214.00000p  949.7580m  949.5484m  949.7932m  949.7879m 
  215.00000p  949.7705m  949.5614m  949.8038m  949.7995m 
  216.00000p  949.7830m  949.5744m  949.8144m  949.8111m 
  217.00000p  949.7955m  949.5874m  949.8249m  949.8228m 
  218.00000p  949.8080m  949.6004m  949.8355m  949.8344m 
  219.00000p  949.8205m  949.6134m  949.8460m  949.8460m 
  220.00000p  949.8329m  949.6264m  949.8566m  949.8576m 
  221.00000p  949.8454m  949.6394m  949.8671m  949.8692m 
  222.00000p  949.8579m  949.6524m  949.8777m  949.8808m 
  223.00000p  949.8704m  949.6654m  949.8882m  949.8924m 
  224.00000p  949.8821m  949.6778m  949.8982m  949.9033m 
  225.00000p  949.8841m  949.6813m  949.8996m  949.9043m 
  226.00000p  949.8861m  949.6848m  949.9010m  949.9052m 
  227.00000p  949.8881m  949.6882m  949.9025m  949.9062m 
  228.00000p  949.8901m  949.6917m  949.9039m  949.9072m 
  229.00000p  949.8921m  949.6952m  949.9054m  949.9081m 
  230.00000p  949.8940m  949.6987m  949.9068m  949.9091m 
  231.00000p  949.8960m  949.7022m  949.9083m  949.9100m 
  232.00000p  949.8980m  949.7057m  949.9097m  949.9110m 
  233.00000p  949.9000m  949.7092m  949.9111m  949.9120m 
  234.00000p  949.9020m  949.7127m  949.9126m  949.9129m 
  235.00000p  949.9040m  949.7162m  949.9140m  949.9139m 
  236.00000p  949.9059m  949.7197m  949.9155m  949.9149m 
  237.00000p  949.9079m  949.7232m  949.9169m  949.9158m 
  238.00000p  949.9099m  949.7267m  949.9184m  949.9168m 
  239.00000p  949.9119m  949.7301m  949.9198m  949.9177m 
  240.00000p  949.9139m  949.7336m  949.9212m  949.9187m 
  241.00000p  949.9159m  949.7371m  949.9227m  949.9197m 
  242.00000p  949.9178m  949.7406m  949.9241m  949.9206m 
  243.00000p  949.9198m  949.7441m  949.9256m  949.9216m 
  244.00000p  949.9218m  949.7476m  949.9270m  949.9226m 
  245.00000p  949.9238m  949.7511m  949.9285m  949.9235m 
  246.00000p  949.9258m  949.7546m  949.9299m  949.9245m 
  247.00000p  949.9277m  949.7581m  949.9313m  949.9254m 
  248.00000p  949.9297m  949.7616m  949.9328m  949.9264m 
  249.00000p  949.9317m  949.7651m  949.9342m  949.9274m 
  250.00000p  949.9337m  949.7686m  949.9357m  949.9283m 
  251.00000p  950.3176m  950.1769m  950.5509m  950.4510m 
  252.00000p  951.0834m  950.9902m  951.7800m  951.4953m 
  253.00000p  951.8492m  951.8035m  953.0090m  952.5397m 
  254.00000p  952.6150m  952.6167m  954.2381m  953.5840m 
  255.00000p  953.3808m  953.4300m  955.4672m  954.6283m 
  256.00000p  954.1466m  954.2433m  956.6962m  955.6727m 
  257.00000p  954.9247m  955.0691m  957.8764m  956.7198m 
  258.00000p  955.7398m  955.9325m  958.9098m  957.7753m 
  259.00000p  956.5605m  956.8016m  959.9359m  958.8236m 
  260.00000p  957.4522m  957.7438m  960.8697m  959.7815m 
  261.00000p  958.3438m  958.6860m  961.8036m  960.7394m 
  262.00000p  959.2354m  959.6282m  962.7374m  961.6973m 
  263.00000p  960.1271m  960.5704m  963.6713m  962.6552m 
  264.00000p  961.0187m  961.5126m  964.6051m  963.6132m 
  265.00000p  961.9104m  962.4548m  965.5390m  964.5711m 
  266.00000p  962.7449m  963.3851m  966.3906m  965.4316m 
  267.00000p  963.1074m  964.2173m  966.5619m  965.4870m 
  268.00000p  963.4699m  965.0494m  966.7333m  965.5424m 
  269.00000p  963.8324m  965.8816m  966.9046m  965.5979m 
  270.00000p  964.1949m  966.7137m  967.0759m  965.6533m 
  271.00000p  964.5574m  967.5458m  967.2473m  965.7087m 
  272.00000p  964.9199m  968.3780m  967.4186m  965.7641m 
  273.00000p  965.2824m  969.2101m  967.5900m  965.8195m 
  274.00000p  965.6449m  970.0423m  967.7613m  965.8749m 
  275.00000p  966.0074m  970.8744m  967.9326m  965.9303m 
