 ****** PrimeSim HSPICE -- T-2022.06-SP1 linux64 (Aug 19 2022 7764626) ******
  Copyright (c) 1986 - 2023 by Synopsys, Inc. All Rights Reserved.
  This software and the associated documentation are proprietary
  to Synopsys, Inc. This software may only be used in accordance
  with the terms and conditions of a written license agreement with
  Synopsys, Inc. All other use, reproduction, or distribution of
  this software is strictly prohibited.
  Input File: sram_writep_power.sp                                              
  Command line options: /opt/synopsys/hspice/T-2022.06-SP1/hspice/linux64/hspice sram_writep_power.sp
  Start time: Fri Jul  7 09:07:45 2023
 lic:  
 lic: FLEXlm: SDK_12.11.1 
 lic: USER:   yc2367               HOSTNAME: beluga 
 lic: HOSTID: 54802750             PID:      19118 
 lic: Using FLEXlm license file: 
 lic: 27000@flex.ece.cornell.edu 
 lic: Checkout 1 hspice 
 lic: License/Maintenance for hspice will expire on 09-jan-2025/2022.06 
 lic: 1(in_use)/50(total) FLOATING license(s) on SERVER 27000@flex.ece.cornell.edu 
 lic:   
  **info** (sram_writep_power.sp:18) DC voltage reset to initial transient source value in source 0:vdatain. new dc=0.9500D+00
  **warning** (sram_writep_power.sp:18) pulse rise time is  < or = zero, reset to tstep
  **warning** (sram_writep_power.sp:18) pulse fall time is  < or = zero, reset to tstep
  **warning** (nmos:xtgate1.mntgate (../basic_subcircuits.l:206)) Warning:  Acde = 0.245565 may be too small in BSIM4 model with w=2e-07 l=2.2e-08.
  **warning** (sram_writep_power.sp:3384) Unable to find referenced node xprechargesa.n_1_2; Output variable ignored. Specify a valid node.
             
 Summary of Linear Res Distribution Info
 ---------------------------------------
 |Range          |Total     |Percent(%)|
 |---------------+----------+----------|
 |1e+00  ~  1e+03|1024      |100.0000  |
 ---------------------------------------
              
             
 Summary of Linear Cap Distribution Info
 ---------------------------------------
 |Range          |Total     |Percent(%)|
 |---------------+----------+----------|
 |1e-17  ~  1e-16|2048      |100.0000  |
 ---------------------------------------
              
             
 Summary of Detailed RC Type Statistics
 -------------------------
 |Element Type|Number    |
 |------------+----------|
 |Constant Res|1024      |
 |            |          |
 |Constant Cap|2048      |
 -------------------------
              
  

  **warning** the following singular supplies were terminated to 1 meg resistor 
          supply       node1            node2
(../process_data.l:43)vclmomtjn               0:vclmpmtj         defined in subckt 0                     0:0                defined in subckt 0               
(../process_data.l:38)vsupply                 0:vdd              defined in subckt 0                     0:0                defined in subckt 0               
(../process_data.l:42)vrefmtjn                0:vrefmtj          defined in subckt 0                     0:0                defined in subckt 0               
(../process_data.l:41)vsram                   0:vsram            defined in subckt 0                     0:0                defined in subckt 0               
(../process_data.l:44)vsram_n                 0:vsram_n          defined in subckt 0                     0:0                defined in subckt 0               
      
 **info** set option symb=1 internally to help for convergence.
 *****************************************************************
 ******  option summary
 ******
 runlvl  = 3         bypass  = 2.0000    
 **info** dc convergence successful at Newton-Raphson method 

   *** data name = sweep_data , index =     1 ***

 ******
 .title sram write power measurement circuit

 ****** transient analysis tnom=  25.000 temp=  25.000 ******
x

 time         voltage    voltage    voltage    voltage   
             tgate_l    tgate_r    n_bl_0     n_bl_128   
    0.        949.9992m  421.1141n  949.9997m  924.5043m 
    1.00000p  898.3802m  211.3012u  938.6787m  924.3464m 
    2.00000p  902.4530m    6.2995m  930.9351m  923.6530m 
    3.00000p  904.9960m   10.5702m  926.2377m  921.8560m 
    4.00000p  907.2320m   14.4776m  922.0323m  919.9078m 
    5.00000p  908.1201m   16.7488m  919.3594m  917.6551m 
    6.00000p  909.0082m   19.0201m  916.6865m  915.4023m 
    7.00000p  909.7870m   21.2510m  914.0887m  913.2131m 
    8.00000p  909.5672m   23.1132m  912.1773m  911.6041m 
    9.00000p  909.3474m   24.9753m  910.2659m  909.9951m 
   10.00000p  909.1276m   26.8375m  908.3544m  908.3861m 
   11.00000p  908.6541m   28.6611m  906.6009m  906.9624m 
   12.00000p  907.7356m   30.4169m  905.1243m  905.8637m 
   13.00000p  906.8171m   32.1727m  903.6477m  904.7650m 
   14.00000p  905.8986m   33.9285m  902.1711m  903.6663m 
   15.00000p  904.9800m   35.6844m  900.6945m  902.5676m 
   16.00000p  904.0615m   37.4402m  899.2179m  901.4689m 
   17.00000p  902.8881m   37.2882m  897.9487m  900.4743m 
   18.00000p  901.6908m   36.9566m  896.6990m  899.4894m 
   19.00000p  900.4934m   36.6251m  895.4493m  898.5045m 
   20.00000p  899.2960m   36.2936m  894.1996m  897.5197m 
   21.00000p  898.0986m   35.9621m  892.9499m  896.5348m 
   22.00000p  896.9013m   35.6306m  891.7002m  895.5499m 
   23.00000p  895.7039m   35.2990m  890.4505m  894.5650m 
   24.00000p  894.3193m   36.1670m  888.8031m  893.3660m 
   25.00000p  892.9315m   37.0555m  887.1490m  892.1632m 
   26.00000p  891.5437m   37.9440m  885.4948m  890.9605m 
   27.00000p  890.1558m   38.8325m  883.8406m  889.7578m 
   28.00000p  888.7680m   39.7210m  882.1865m  888.5550m 
   29.00000p  887.1385m   42.7760m  880.1658m  887.0797m 
   30.00000p  885.1639m   48.9237m  877.6219m  885.2153m 
   31.00000p  883.1893m   55.0715m  875.0780m  883.3510m 
   32.00000p  881.2147m   61.2192m  872.5341m  881.4866m 
   33.00000p  879.2401m   67.3669m  869.9902m  879.6222m 
   34.00000p  877.2655m   73.5146m  867.4463m  877.7578m 
   35.00000p  875.2909m   79.6624m  864.9024m  875.8934m 
   36.00000p  872.7944m   90.7695m  861.9350m  873.4188m 
   37.00000p  870.0600m  104.1370m  858.7746m  870.6659m 
   38.00000p  867.3256m  117.5044m  855.6143m  867.9131m 
   39.00000p  864.5912m  130.8718m  852.4539m  865.1603m 
   40.00000p  861.8568m  144.2393m  849.2935m  862.4075m 
   41.00000p  859.1224m  157.6067m  846.1331m  859.6547m 
   42.00000p  856.3880m  170.9742m  842.9728m  856.9019m 
   43.00000p  853.6537m  184.3416m  839.8124m  854.1490m 
   44.00000p  850.7151m  200.3318m  836.5920m  851.1423m 
   45.00000p  847.6158m  218.3852m  833.3245m  847.9359m 
   46.00000p  844.5166m  236.4387m  830.0569m  844.7294m 
   47.00000p  841.4173m  254.4921m  826.7893m  841.5230m 
   48.00000p  838.3181m  272.5456m  823.5217m  838.3165m 
   49.00000p  835.2188m  290.5991m  820.2542m  835.1101m 
   50.00000p  832.1196m  308.6525m  816.9866m  831.9036m 
   51.00000p  831.0595m  323.7456m  817.7077m  830.6807m 
   52.00000p  829.9995m  338.8386m  818.4289m  829.4578m 
   53.00000p  828.9395m  353.9317m  819.1501m  828.2350m 
   54.00000p  827.8794m  369.0247m  819.8712m  827.0121m 
   55.00000p  826.8194m  384.1178m  820.5924m  825.7892m 
   56.00000p  825.8972m  399.7036m  821.3625m  824.7085m 
   57.00000p  825.2407m  416.3223m  822.2824m  823.9130m 
   58.00000p  825.3282m  436.0035m  823.7340m  823.9388m 
   59.00000p  825.4157m  455.6846m  825.1855m  823.9645m 
   60.00000p  825.5033m  475.3658m  826.6371m  823.9903m 
   61.00000p  825.5908m  495.0470m  828.0886m  824.0160m 
   62.00000p  826.7578m  516.2100m  830.2968m  825.1970m 
   63.00000p  828.2828m  537.8643m  832.7559m  826.7609m 
   64.00000p  829.8077m  559.5185m  835.2149m  828.3248m 
   65.00000p  831.3327m  581.1728m  837.6739m  829.8887m 
   66.00000p  832.8576m  602.8270m  840.1329m  831.4526m 
   67.00000p  834.3826m  624.4813m  842.5919m  833.0164m 
   68.00000p  835.9075m  646.1355m  845.0510m  834.5803m 
   69.00000p  837.4325m  667.7897m  847.5100m  836.1442m 
   70.00000p  839.9289m  683.9641m  850.3935m  838.6943m 
   71.00000p  842.5239m  699.5830m  853.3200m  841.3443m 
   72.00000p  845.1188m  715.2018m  856.2465m  843.9943m 
   73.00000p  847.7138m  730.8206m  859.1731m  846.6444m 
   74.00000p  850.3087m  746.4394m  862.0996m  849.2944m 
   75.00000p  852.9037m  762.0583m  865.0261m  851.9444m 
   76.00000p  855.4986m  777.6771m  867.9527m  854.5945m 
   77.00000p  858.0936m  793.2959m  870.8792m  857.2445m 
   78.00000p  860.8776m  801.7664m  873.5964m  860.0728m 
   79.00000p  863.6790m  809.5810m  876.2943m  862.9175m 
   80.00000p  866.4803m  817.3956m  878.9922m  865.7623m 
   81.00000p  869.2817m  825.2103m  881.6902m  868.6070m 
   82.00000p  872.0831m  833.0249m  884.3881m  871.4517m 
   83.00000p  874.8844m  840.8395m  887.0861m  874.2964m 
   84.00000p  877.6858m  848.6542m  889.7840m  877.1411m 
   85.00000p  880.4872m  856.4688m  892.4819m  879.9858m 
   86.00000p  883.1698m  863.3524m  895.0133m  882.7047m 
   87.00000p  885.4427m  867.0243m  896.9700m  884.9897m 
   88.00000p  887.7157m  870.6963m  898.9267m  887.2747m 
   89.00000p  889.9887m  874.3682m  900.8834m  889.5598m 
   90.00000p  892.2616m  878.0401m  902.8402m  891.8448m 
   91.00000p  894.5346m  881.7121m  904.7969m  894.1298m 
   92.00000p  896.8075m  885.3840m  906.7536m  896.4148m 
   93.00000p  899.0805m  889.0560m  908.7103m  898.6998m 
   94.00000p  901.3534m  892.7279m  910.6670m  900.9848m 
   95.00000p  903.6264m  896.3999m  912.6237m  903.2698m 
   96.00000p  905.8993m  900.0718m  914.5805m  905.5548m 
   97.00000p  908.1723m  903.7438m  916.5372m  907.8398m 
   98.00000p  910.4452m  907.4157m  918.4939m  910.1248m 
   99.00000p  912.3908m  910.2720m  920.1380m  912.0850m 
  100.00000p  913.8581m  911.9368m  921.3254m  913.5708m 
  101.00000p  915.3254m  913.6016m  922.5127m  915.0565m 
  102.00000p  916.7927m  915.2665m  923.7001m  916.5423m 
  103.00000p  918.2600m  916.9313m  924.8875m  918.0280m 
  104.00000p  919.7273m  918.5961m  926.0749m  919.5137m 
  105.00000p  921.1946m  920.2609m  927.2623m  920.9995m 
  106.00000p  922.6620m  921.9257m  928.4497m  922.4852m 
  107.00000p  924.1293m  923.5905m  929.6371m  923.9710m 
  108.00000p  925.5966m  925.2553m  930.8244m  925.4567m 
  109.00000p  927.0639m  926.9202m  932.0118m  926.9425m 
  110.00000p  928.1843m  928.1403m  932.9079m  928.0718m 
  111.00000p  928.9853m  928.9511m  933.5357m  928.8729m 
  112.00000p  929.7862m  929.7619m  934.1636m  929.6740m 
  113.00000p  930.5872m  930.5727m  934.7914m  930.4751m 
  114.00000p  931.3882m  931.3835m  935.4193m  931.2762m 
  115.00000p  932.1892m  932.1943m  936.0472m  932.0774m 
  116.00000p  932.9902m  933.0051m  936.6750m  932.8785m 
  117.00000p  933.7912m  933.8159m  937.3029m  933.6796m 
  118.00000p  934.5922m  934.6267m  937.9307m  934.4807m 
  119.00000p  935.3932m  935.4375m  938.5586m  935.2818m 
  120.00000p  936.1942m  936.2483m  939.1864m  936.0830m 
  121.00000p  936.9951m  937.0591m  939.8143m  936.8841m 
  122.00000p  937.7961m  937.8699m  940.4421m  937.6852m 
  123.00000p  938.5971m  938.6807m  941.0700m  938.4863m 
  124.00000p  939.3981m  939.4915m  941.6978m  939.2874m 
  125.00000p  940.1991m  940.3023m  942.3257m  940.0885m 
  126.00000p  940.7733m  940.8752m  942.7756m  940.6646m 
  127.00000p  941.0941m  941.1822m  943.0265m  940.9892m 
  128.00000p  941.4148m  941.4892m  943.2775m  941.3137m 
  129.00000p  941.7355m  941.7962m  943.5284m  941.6382m 
  130.00000p  942.0563m  942.1032m  943.7794m  941.9627m 
  131.00000p  942.3770m  942.4102m  944.0303m  942.2873m 
  132.00000p  942.6978m  942.7173m  944.2812m  942.6118m 
  133.00000p  943.0185m  943.0243m  944.5322m  942.9363m 
  134.00000p  943.3392m  943.3313m  944.7831m  943.2609m 
  135.00000p  943.6600m  943.6383m  945.0341m  943.5854m 
  136.00000p  943.9807m  943.9453m  945.2850m  943.9099m 
  137.00000p  944.3015m  944.2523m  945.5360m  944.2344m 
  138.00000p  944.6222m  944.5593m  945.7869m  944.5590m 
  139.00000p  944.9429m  944.8663m  946.0379m  944.8835m 
  140.00000p  945.2637m  945.1733m  946.2888m  945.2080m 
  141.00000p  945.5844m  945.4803m  946.5398m  945.5325m 
  142.00000p  945.9052m  945.7873m  946.7907m  945.8571m 
  143.00000p  946.2259m  946.0944m  947.0417m  946.1816m 
  144.00000p  946.5466m  946.4014m  947.2926m  946.5061m 
  145.00000p  946.8674m  946.7084m  947.5436m  946.8307m 
  146.00000p  946.9728m  946.8119m  947.6257m  946.9370m 
  147.00000p  947.0632m  946.9011m  947.6960m  947.0281m 
  148.00000p  947.1535m  946.9903m  947.7662m  947.1191m 
  149.00000p  947.2438m  947.0795m  947.8365m  947.2101m 
  150.00000p  947.3342m  947.1687m  947.9068m  947.3012m 
  151.00000p  947.4245m  947.2579m  947.9770m  947.3922m 
  152.00000p  947.5148m  947.3471m  948.0473m  947.4832m 
  153.00000p  947.6052m  947.4364m  948.1176m  947.5743m 
  154.00000p  947.6955m  947.5256m  948.1879m  947.6653m 
  155.00000p  947.7858m  947.6148m  948.2581m  947.7564m 
  156.00000p  947.8762m  947.7040m  948.3284m  947.8474m 
  157.00000p  947.9665m  947.7932m  948.3987m  947.9384m 
  158.00000p  948.0569m  947.8824m  948.4689m  948.0295m 
  159.00000p  948.1472m  947.9716m  948.5392m  948.1205m 
  160.00000p  948.2375m  948.0608m  948.6095m  948.2115m 
  161.00000p  948.3279m  948.1500m  948.6798m  948.3026m 
  162.00000p  948.4182m  948.2393m  948.7500m  948.3936m 
  163.00000p  948.5085m  948.3285m  948.8203m  948.4847m 
  164.00000p  948.5989m  948.4177m  948.8906m  948.5757m 
  165.00000p  948.6892m  948.5069m  948.9608m  948.6667m 
  166.00000p  948.7795m  948.5961m  949.0311m  948.7578m 
  167.00000p  948.8699m  948.6853m  949.1014m  948.8488m 
  168.00000p  948.9602m  948.7745m  949.1717m  948.9398m 
  169.00000p  949.0505m  948.8637m  949.2419m  949.0309m 
  170.00000p  949.1409m  948.9530m  949.3122m  949.1219m 
  171.00000p  949.2312m  949.0422m  949.3825m  949.2130m 
  172.00000p  949.3216m  949.1314m  949.4527m  949.3040m 
  173.00000p  949.4027m  949.2115m  949.5159m  949.3858m 
  174.00000p  949.4184m  949.2272m  949.5287m  949.4021m 
  175.00000p  949.4341m  949.2428m  949.5414m  949.4183m 
  176.00000p  949.4498m  949.2585m  949.5541m  949.4345m 
  177.00000p  949.4655m  949.2741m  949.5668m  949.4508m 
  178.00000p  949.4812m  949.2897m  949.5796m  949.4670m 
  179.00000p  949.4969m  949.3054m  949.5923m  949.4833m 
  180.00000p  949.5126m  949.3210m  949.6050m  949.4995m 
  181.00000p  949.5283m  949.3367m  949.6177m  949.5157m 
  182.00000p  949.5441m  949.3523m  949.6305m  949.5320m 
  183.00000p  949.5598m  949.3679m  949.6432m  949.5482m 
  184.00000p  949.5755m  949.3836m  949.6559m  949.5645m 
  185.00000p  949.5912m  949.3992m  949.6686m  949.5807m 
  186.00000p  949.6069m  949.4149m  949.6814m  949.5969m 
  187.00000p  949.6226m  949.4305m  949.6941m  949.6132m 
  188.00000p  949.6383m  949.4462m  949.7068m  949.6294m 
  189.00000p  949.6540m  949.4618m  949.7195m  949.6457m 
  190.00000p  949.6697m  949.4774m  949.7323m  949.6619m 
  191.00000p  949.6854m  949.4931m  949.7450m  949.6782m 
  192.00000p  949.7011m  949.5087m  949.7577m  949.6944m 
  193.00000p  949.7168m  949.5244m  949.7704m  949.7106m 
  194.00000p  949.7325m  949.5400m  949.7832m  949.7269m 
  195.00000p  949.7482m  949.5556m  949.7959m  949.7431m 
  196.00000p  949.7639m  949.5713m  949.8086m  949.7594m 
  197.00000p  949.7796m  949.5869m  949.8213m  949.7756m 
  198.00000p  949.7953m  949.6026m  949.8341m  949.7918m 
  199.00000p  949.8110m  949.6182m  949.8468m  949.8081m 
  200.00000p  949.8267m  949.6338m  949.8595m  949.8243m 
  201.00000p  949.8424m  949.6495m  949.8722m  949.8406m 
  202.00000p  949.8582m  949.6651m  949.8850m  949.8568m 
  203.00000p  949.8739m  949.6808m  949.8977m  949.8730m 
  204.00000p  949.8896m  949.6964m  949.9104m  949.8893m 
  205.00000p  949.9053m  949.7121m  949.9231m  949.9055m 
  206.00000p  949.9210m  949.7277m  949.9358m  949.9218m 
  207.00000p  949.9335m  949.7406m  949.9460m  949.9347m 
  208.00000p  949.9347m  949.7434m  949.9466m  949.9357m 
  209.00000p  949.9358m  949.7462m  949.9472m  949.9368m 
  210.00000p  949.9369m  949.7490m  949.9479m  949.9378m 
  211.00000p  949.9381m  949.7518m  949.9485m  949.9388m 
  212.00000p  949.9392m  949.7546m  949.9492m  949.9398m 
  213.00000p  949.9404m  949.7574m  949.9498m  949.9409m 
  214.00000p  949.9415m  949.7602m  949.9505m  949.9419m 
  215.00000p  949.9426m  949.7630m  949.9511m  949.9429m 
  216.00000p  949.9438m  949.7658m  949.9518m  949.9439m 
  217.00000p  949.9449m  949.7686m  949.9524m  949.9450m 
  218.00000p  949.9460m  949.7714m  949.9531m  949.9460m 
  219.00000p  949.9472m  949.7743m  949.9537m  949.9470m 
  220.00000p  949.9483m  949.7771m  949.9544m  949.9480m 
  221.00000p  949.9495m  949.7799m  949.9550m  949.9491m 
  222.00000p  949.9506m  949.7827m  949.9556m  949.9501m 
  223.00000p  949.9517m  949.7855m  949.9563m  949.9511m 
  224.00000p  949.9529m  949.7883m  949.9569m  949.9521m 
  225.00000p  949.9540m  949.7911m  949.9576m  949.9532m 
  226.00000p  949.9551m  949.7939m  949.9582m  949.9542m 
  227.00000p  949.9563m  949.7967m  949.9589m  949.9552m 
  228.00000p  949.9574m  949.7995m  949.9595m  949.9562m 
  229.00000p  949.9586m  949.8023m  949.9602m  949.9573m 
  230.00000p  949.9597m  949.8051m  949.9608m  949.9583m 
  231.00000p  949.9608m  949.8080m  949.9615m  949.9593m 
  232.00000p  949.9620m  949.8108m  949.9621m  949.9603m 
  233.00000p  949.9631m  949.8136m  949.9627m  949.9614m 
  234.00000p  949.9643m  949.8164m  949.9634m  949.9624m 
  235.00000p  949.9654m  949.8192m  949.9640m  949.9634m 
  236.00000p  949.9665m  949.8220m  949.9647m  949.9644m 
  237.00000p  949.9677m  949.8248m  949.9653m  949.9655m 
  238.00000p  949.9688m  949.8276m  949.9660m  949.9665m 
  239.00000p  950.0662m  949.9322m  950.1211m  950.0537m 
  240.00000p  951.0295m  950.9525m  951.6670m  950.9164m 
  241.00000p  951.9929m  951.9728m  953.2128m  951.7791m 
  242.00000p  952.9562m  952.9931m  954.7586m  952.6418m 
  243.00000p  953.9196m  954.0133m  956.3044m  953.5045m 
  244.00000p  954.8830m  955.0336m  957.8503m  954.3672m 
  245.00000p  955.8463m  956.0539m  959.3961m  955.2299m 
  246.00000p  956.8328m  957.0959m  960.6166m  956.1770m 
  247.00000p  957.8234m  958.1417m  961.7798m  957.1390m 
  248.00000p  958.8268m  959.1961m  962.8651m  958.1412m 
  249.00000p  959.8432m  960.2594m  963.8716m  959.1842m 
  250.00000p  960.8596m  961.3227m  964.8781m  960.2271m 
  251.00000p  961.8760m  962.3860m  965.8845m  961.2700m 
  252.00000p  962.8923m  963.4493m  966.8910m  962.3130m 
  253.00000p  963.9087m  964.5126m  967.8974m  963.3559m 
  254.00000p  964.9251m  965.5759m  968.9039m  964.3989m 
  255.00000p  965.9415m  966.6392m  969.9104m  965.4418m 
  256.00000p  966.6473m  967.5724m  970.5104m  965.8687m 
  257.00000p  967.3420m  968.5010m  971.0960m  966.2736m 
  258.00000p  968.0367m  969.4296m  971.6815m  966.6786m 
  259.00000p  968.7314m  970.3582m  972.2671m  967.0835m 
  260.00000p  969.4261m  971.2868m  972.8526m  967.4884m 
  261.00000p  970.1208m  972.2155m  973.4382m  967.8934m 
  262.00000p  970.8155m  973.1441m  974.0238m  968.2983m 
  263.00000p  971.5102m  974.0727m  974.6093m  968.7032m 
  264.00000p  972.2049m  975.0013m  975.1949m  969.1082m 
  265.00000p  972.8996m  975.9299m  975.7804m  969.5131m 
  266.00000p  973.5943m  976.8585m  976.3660m  969.9180m 
  267.00000p  974.2890m  977.7871m  976.9516m  970.3230m 
  268.00000p  974.9837m  978.7157m  977.5371m  970.7279m 
  269.00000p  975.6785m  979.6443m  978.1227m  971.1328m 
  270.00000p  976.3732m  980.5729m  978.7082m  971.5378m 
  271.00000p  977.0679m  981.5015m  979.2938m  971.9427m 
  272.00000p  977.7626m  982.4301m  979.8794m  972.3476m 
  273.00000p  978.4573m  983.3587m  980.4649m  972.7526m 
  274.00000p  979.1520m  984.2873m  981.0505m  973.1575m 
  275.00000p  979.8467m  985.2159m  981.6360m  973.5624m 
