 ****** PrimeSim HSPICE -- T-2022.06-SP1 linux64 (Aug 19 2022 7764626) ******
  Copyright (c) 1986 - 2023 by Synopsys, Inc. All Rights Reserved.
  This software and the associated documentation are proprietary
  to Synopsys, Inc. This software may only be used in accordance
  with the terms and conditions of a written license agreement with
  Synopsys, Inc. All other use, reproduction, or distribution of
  this software is strictly prohibited.
  Input File: sram_writehh_power.sp                                             
  Command line options: /opt/synopsys/hspice/T-2022.06-SP1/hspice/linux64/hspice sram_writehh_power.sp
  Start time: Sat Jul  1 18:32:36 2023
 lic:  
 lic: FLEXlm: SDK_12.11.1 
 lic: USER:   yc2367               HOSTNAME: beluga 
 lic: HOSTID: 54802750             PID:      27977 
 lic: Using FLEXlm license file: 
 lic: 27000@flex.ece.cornell.edu 
 lic: Checkout 1 hspice 
 lic: License/Maintenance for hspice will expire on 09-jan-2025/2022.06 
 lic: 1(in_use)/50(total) FLOATING license(s) on SERVER 27000@flex.ece.cornell.edu 
 lic:   
  **info** (sram_writehh_power.sp:17) DC voltage reset to initial transient source value in source 0:vprecharge. new dc=0.9500D+00
  **warning** (nmos:xtgate1.mntgate (../basic_subcircuits.l:206)) Warning:  Acde = 0.245565 may be too small in BSIM4 model with w=2e-07 l=2.2e-08.
  **warning** (sram_writehh_power.sp:3383) Unable to find referenced node xprechargesa.n_1_2; Output variable ignored. Specify a valid node.
             
 Summary of Linear Res Distribution Info
 ---------------------------------------
 |Range          |Total     |Percent(%)|
 |---------------+----------+----------|
 |1e+00  ~  1e+03|1024      |100.0000  |
 ---------------------------------------
              
             
 Summary of Linear Cap Distribution Info
 ---------------------------------------
 |Range          |Total     |Percent(%)|
 |---------------+----------+----------|
 |1e-17  ~  1e-16|2048      |100.0000  |
 ---------------------------------------
              
             
 Summary of Detailed RC Type Statistics
 -------------------------
 |Element Type|Number    |
 |------------+----------|
 |Constant Res|1024      |
 |            |          |
 |Constant Cap|2048      |
 -------------------------
              
  

  **warning** the following singular supplies were terminated to 1 meg resistor 
          supply       node1            node2
(../process_data.l:43)vclmomtjn               0:vclmpmtj         defined in subckt 0                     0:0                defined in subckt 0               
(../process_data.l:38)vsupply                 0:vdd              defined in subckt 0                     0:0                defined in subckt 0               
(../process_data.l:42)vrefmtjn                0:vrefmtj          defined in subckt 0                     0:0                defined in subckt 0               
(../process_data.l:41)vsram                   0:vsram            defined in subckt 0                     0:0                defined in subckt 0               
(../process_data.l:44)vsram_n                 0:vsram_n          defined in subckt 0                     0:0                defined in subckt 0               
      
 **info** set option symb=1 internally to help for convergence.
 *****************************************************************
 ******  option summary
 ******
 runlvl  = 3         bypass  = 2.0000    
 **info** dc convergence successful at Newton-Raphson method 

   *** data name = sweep_data , index =     1 ***

 ******
 .title sram write power measurement circuit

 ****** transient analysis tnom=  25.000 temp=  25.000 ******
x

 time         voltage    voltage    voltage    voltage   
             tgate_l    tgate_r    n_bl_0     n_bl_128   
    0.        819.3235m   25.4554m  949.9989m  924.5035m 
    1.00000p  814.7429m   27.9016m  930.8605m  923.5831m 
    2.00000p  808.5690m   30.9433m  918.8329m  920.9737m 
    3.00000p  802.0225m   34.0772m  908.8833m  917.3921m 
    4.00000p  795.5670m   37.1814m  901.2567m  912.4625m 
    5.00000p  789.1114m   40.2856m  893.6301m  907.5330m 
    6.00000p  784.0932m   42.9986m  887.2309m  902.2217m 
    7.00000p  779.6294m   45.5607m  881.3052m  896.7632m 
    8.00000p  775.1656m   48.1227m  875.3795m  891.3047m 
    9.00000p  770.8528m   50.6611m  869.5050m  885.8763m 
   10.00000p  770.0496m   52.6495m  864.8222m  881.1474m 
   11.00000p  769.2465m   54.6378m  860.1393m  876.4184m 
   12.00000p  768.4433m   56.6261m  855.4564m  871.6894m 
   13.00000p  767.6402m   58.6144m  850.7736m  866.9604m 
   14.00000p  768.3425m   60.4174m  846.8690m  862.7447m 
   15.00000p  770.8144m   62.0024m  843.8793m  859.1321m 
   16.00000p  773.2863m   63.5874m  840.8896m  855.5196m 
   17.00000p  775.7581m   65.1725m  837.8999m  851.9071m 
   18.00000p  778.2300m   66.7575m  834.9102m  848.2945m 
   19.00000p  780.7019m   68.3426m  831.9204m  844.6820m 
   20.00000p  783.1737m   69.9276m  828.9307m  841.0695m 
   21.00000p  785.6429m   71.5969m  826.1645m  837.6644m 
   22.00000p  788.0969m   73.7407m  824.6568m  835.4279m 
   23.00000p  790.5509m   75.8844m  823.1491m  833.1913m 
   24.00000p  793.0048m   78.0282m  821.6415m  830.9548m 
   25.00000p  795.4588m   80.1720m  820.1338m  828.7183m 
   26.00000p  797.9128m   82.3157m  818.6261m  826.4817m 
   27.00000p  800.3667m   84.4595m  817.1184m  824.2452m 
   28.00000p  802.0959m   87.8985m  816.0647m  822.4960m 
   29.00000p  802.8402m   93.0972m  815.6277m  821.4089m 
   30.00000p  803.5846m   98.2960m  815.1907m  820.3218m 
   31.00000p  804.3289m  103.4947m  814.7537m  819.2348m 
   32.00000p  805.0732m  108.6935m  814.3167m  818.1477m 
   33.00000p  805.8176m  113.8922m  813.8797m  817.0607m 
   34.00000p  806.5619m  119.0910m  813.4427m  815.9736m 
   35.00000p  807.3063m  124.2897m  813.0057m  814.8865m 
   36.00000p  807.3110m  134.6801m  812.5625m  814.4142m 
   37.00000p  807.2819m  145.3085m  812.1189m  813.9702m 
   38.00000p  807.2527m  155.9369m  811.6754m  813.5261m 
   39.00000p  807.2235m  166.5654m  811.2318m  813.0820m 
   40.00000p  807.1944m  177.1938m  810.7883m  812.6379m 
   41.00000p  807.1652m  187.8222m  810.3447m  812.1938m 
   42.00000p  807.1360m  198.4506m  809.9012m  811.7497m 
   43.00000p  807.1069m  209.0790m  809.4576m  811.3056m 
   44.00000p  806.3862m  224.2816m  808.0494m  810.5145m 
   45.00000p  805.6458m  239.6140m  806.6138m  809.7135m 
   46.00000p  804.9055m  254.9465m  805.1782m  808.9126m 
   47.00000p  804.1651m  270.2789m  803.7425m  808.1116m 
   48.00000p  803.4248m  285.6114m  802.3069m  807.3106m 
   49.00000p  802.6845m  300.9438m  800.8713m  806.5097m 
   50.00000p  801.9441m  316.2763m  799.4357m  805.7087m 
   51.00000p  802.0672m  329.0868m  800.4679m  805.5770m 
   52.00000p  802.1902m  341.8972m  801.5001m  805.4452m 
   53.00000p  802.3133m  354.7077m  802.5323m  805.3134m 
   54.00000p  802.4363m  367.5182m  803.5645m  805.1817m 
   55.00000p  802.5594m  380.3287m  804.5967m  805.0499m 
   56.00000p  802.7552m  393.0999m  805.6149m  804.9876m 
   57.00000p  803.0658m  405.9417m  806.6381m  805.0401m 
   58.00000p  803.8326m  420.4582m  807.9632m  805.6071m 
   59.00000p  804.5994m  434.9747m  809.2884m  806.1740m 
   60.00000p  805.3662m  449.4912m  810.6135m  806.7409m 
   61.00000p  806.1331m  464.0077m  811.9387m  807.3079m 
   62.00000p  807.3023m  480.6158m  813.6355m  808.3058m 
   63.00000p  808.7663m  498.7566m  815.6046m  809.6196m 
   64.00000p  810.2304m  516.8974m  817.5738m  810.9334m 
   65.00000p  811.6945m  535.0383m  819.5430m  812.2472m 
   66.00000p  813.1585m  553.1791m  821.5121m  813.5610m 
   67.00000p  814.9915m  571.3905m  823.7689m  815.2556m 
   68.00000p  817.1211m  589.6588m  826.2570m  817.2564m 
   69.00000p  819.2507m  607.9270m  828.7450m  819.2572m 
   70.00000p  821.3803m  626.1952m  831.2331m  821.2580m 
   71.00000p  823.5099m  644.4634m  833.7212m  823.2588m 
   72.00000p  825.6395m  662.7316m  836.2092m  825.2595m 
   73.00000p  828.0927m  677.6577m  838.8690m  827.6049m 
   74.00000p  830.7115m  690.8727m  841.6168m  830.1267m 
   75.00000p  833.3303m  704.0876m  844.3645m  832.6486m 
   76.00000p  835.9491m  717.3025m  847.1122m  835.1704m 
   77.00000p  838.5679m  730.5174m  849.8600m  837.6922m 
   78.00000p  841.1867m  743.7323m  852.6077m  840.2140m 
   79.00000p  843.8055m  756.9472m  855.3555m  842.7358m 
   80.00000p  846.5330m  764.8778m  857.9865m  845.4157m 
   81.00000p  849.2621m  772.7315m  860.6159m  848.0979m 
   82.00000p  851.9912m  780.5851m  863.2452m  850.7802m 
   83.00000p  854.7203m  788.4388m  865.8746m  853.4624m 
   84.00000p  857.4494m  796.2925m  868.5039m  856.1446m 
   85.00000p  860.1786m  804.1461m  871.1333m  858.8268m 
   86.00000p  862.9077m  811.9998m  873.7627m  861.5090m 
   87.00000p  865.6368m  819.8535m  876.3920m  864.1912m 
   88.00000p  868.3659m  827.7071m  879.0214m  866.8734m 
   89.00000p  870.9265m  833.8508m  881.4089m  869.4149m 
   90.00000p  873.3510m  838.6124m  883.6009m  871.8427m 
   91.00000p  875.7756m  843.3741m  885.7929m  874.2704m 
   92.00000p  878.2001m  848.1358m  887.9849m  876.6982m 
   93.00000p  880.6246m  852.8974m  890.1769m  879.1259m 
   94.00000p  883.0491m  857.6591m  892.3689m  881.5537m 
   95.00000p  885.4736m  862.4207m  894.5609m  883.9815m 
   96.00000p  887.8981m  867.1824m  896.7529m  886.4092m 
   97.00000p  890.3226m  871.9440m  898.9449m  888.8370m 
   98.00000p  892.7025m  876.5524m  901.0916m  891.2223m 
   99.00000p  894.5915m  879.4737m  902.7396m  893.1398m 
  100.00000p  896.4805m  882.3951m  904.3875m  895.0574m 
  101.00000p  898.3695m  885.3164m  906.0355m  896.9750m 
  102.00000p  900.2585m  888.2378m  907.6834m  898.8925m 
  103.00000p  902.1475m  891.1591m  909.3314m  900.8101m 
  104.00000p  904.0365m  894.0804m  910.9793m  902.7277m 
  105.00000p  905.9255m  897.0018m  912.6272m  904.6453m 
  106.00000p  907.8145m  899.9231m  914.2752m  906.5628m 
  107.00000p  909.7035m  902.8445m  915.9231m  908.4804m 
  108.00000p  911.1159m  904.7931m  917.1435m  909.9279m 
  109.00000p  912.3151m  906.3064m  918.1724m  911.1651m 
  110.00000p  913.5142m  907.8196m  919.2014m  912.4023m 
  111.00000p  914.7133m  909.3329m  920.2303m  913.6394m 
  112.00000p  915.9124m  910.8461m  921.2593m  914.8766m 
  113.00000p  917.1116m  912.3594m  922.2882m  916.1138m 
  114.00000p  918.3107m  913.8726m  923.3172m  917.3510m 
  115.00000p  919.5098m  915.3859m  924.3461m  918.5881m 
  116.00000p  920.7089m  916.8991m  925.3751m  919.8253m 
  117.00000p  921.9080m  918.4124m  926.4040m  921.0625m 
  118.00000p  923.1072m  919.9256m  927.4330m  922.2996m 
  119.00000p  924.3063m  921.4389m  928.4619m  923.5368m 
  120.00000p  925.5054m  922.9521m  929.4909m  924.7740m 
  121.00000p  926.7045m  924.4654m  930.5198m  926.0111m 
  122.00000p  927.9037m  925.9786m  931.5488m  927.2483m 
  123.00000p  929.1028m  927.4919m  932.5777m  928.4855m 
  124.00000p  930.3019m  929.0051m  933.6067m  929.7226m 
  125.00000p  931.5010m  930.5184m  934.6356m  930.9598m 
  126.00000p  932.2037m  931.3092m  935.2284m  931.6889m 
  127.00000p  932.8149m  931.9670m  935.7408m  932.3244m 
  128.00000p  933.4262m  932.6248m  936.2533m  932.9599m 
  129.00000p  934.0375m  933.2826m  936.7657m  933.5955m 
  130.00000p  934.6487m  933.9405m  937.2782m  934.2310m 
  131.00000p  935.2600m  934.5983m  937.7906m  934.8665m 
  132.00000p  935.8713m  935.2561m  938.3031m  935.5021m 
  133.00000p  936.4825m  935.9139m  938.8155m  936.1376m 
  134.00000p  937.0938m  936.5717m  939.3280m  936.7731m 
  135.00000p  937.7050m  937.2296m  939.8404m  937.4087m 
  136.00000p  938.3163m  937.8874m  940.3529m  938.0442m 
  137.00000p  938.9276m  938.5452m  940.8654m  938.6797m 
  138.00000p  939.5388m  939.2030m  941.3778m  939.3153m 
  139.00000p  940.1267m  939.8353m  941.8707m  939.9265m 
  140.00000p  940.4018m  940.1261m  942.1015m  940.2126m 
  141.00000p  940.6768m  940.4168m  942.3323m  940.4987m 
  142.00000p  940.9519m  940.7076m  942.5632m  940.7849m 
  143.00000p  941.2269m  940.9983m  942.7940m  941.0710m 
  144.00000p  941.5020m  941.2890m  943.0248m  941.3571m 
  145.00000p  941.7770m  941.5798m  943.2557m  941.6432m 
  146.00000p  942.0521m  941.8705m  943.4865m  941.9293m 
  147.00000p  942.3271m  942.1613m  943.7173m  942.2155m 
  148.00000p  942.6022m  942.4520m  943.9481m  942.5016m 
  149.00000p  942.8772m  942.7428m  944.1790m  942.7877m 
  150.00000p  943.1523m  943.0335m  944.4098m  943.0738m 
  151.00000p  943.4273m  943.3242m  944.6406m  943.3599m 
  152.00000p  943.7024m  943.6150m  944.8715m  943.6461m 
  153.00000p  943.9774m  943.9057m  945.1023m  943.9322m 
  154.00000p  944.2525m  944.1965m  945.3331m  944.2183m 
  155.00000p  944.5275m  944.4872m  945.5639m  944.5044m 
  156.00000p  944.8026m  944.7780m  945.7948m  944.7905m 
  157.00000p  945.0776m  945.0687m  946.0256m  945.0767m 
  158.00000p  945.3527m  945.3595m  946.2564m  945.3628m 
  159.00000p  945.6277m  945.6502m  946.4873m  945.6489m 
  160.00000p  945.9028m  945.9409m  946.7181m  945.9350m 
  161.00000p  946.1778m  946.2317m  946.9489m  946.2211m 
  162.00000p  946.4529m  946.5224m  947.1797m  946.5073m 
  163.00000p  946.7279m  946.8132m  947.4106m  946.7934m 
  164.00000p  946.9958m  947.0963m  947.6353m  947.0720m 
  165.00000p  947.0734m  947.1771m  947.6988m  947.1514m 
  166.00000p  947.1510m  947.2580m  947.7624m  947.2309m 
  167.00000p  947.2286m  947.3388m  947.8259m  947.3103m 
  168.00000p  947.3062m  947.4197m  947.8894m  947.3897m 
  169.00000p  947.3838m  947.5005m  947.9529m  947.4692m 
  170.00000p  947.4613m  947.5814m  948.0164m  947.5486m 
  171.00000p  947.5389m  947.6622m  948.0799m  947.6280m 
  172.00000p  947.6165m  947.7431m  948.1435m  947.7075m 
  173.00000p  947.6941m  947.8239m  948.2070m  947.7869m 
  174.00000p  947.7717m  947.9048m  948.2705m  947.8664m 
  175.00000p  947.8493m  947.9856m  948.3340m  947.9458m 
  176.00000p  947.9269m  948.0665m  948.3975m  948.0252m 
  177.00000p  948.0045m  948.1473m  948.4611m  948.1047m 
  178.00000p  948.0821m  948.2282m  948.5246m  948.1841m 
  179.00000p  948.1597m  948.3090m  948.5881m  948.2636m 
  180.00000p  948.2372m  948.3899m  948.6516m  948.3430m 
  181.00000p  948.3148m  948.4707m  948.7151m  948.4224m 
  182.00000p  948.3924m  948.5516m  948.7787m  948.5019m 
  183.00000p  948.4700m  948.6324m  948.8422m  948.5813m 
  184.00000p  948.5476m  948.7133m  948.9057m  948.6608m 
  185.00000p  948.6252m  948.7941m  948.9692m  948.7402m 
  186.00000p  948.7028m  948.8750m  949.0327m  948.8196m 
  187.00000p  948.7804m  948.9558m  949.0963m  948.8991m 
  188.00000p  948.8580m  949.0367m  949.1598m  948.9785m 
  189.00000p  948.9355m  949.1175m  949.2233m  949.0579m 
  190.00000p  948.9604m  949.1417m  949.2438m  949.0830m 
  191.00000p  948.9821m  949.1624m  949.2618m  949.1049m 
  192.00000p  949.0037m  949.1831m  949.2797m  949.1267m 
  193.00000p  949.0254m  949.2038m  949.2976m  949.1485m 
  194.00000p  949.0471m  949.2246m  949.3156m  949.1703m 
  195.00000p  949.0687m  949.2453m  949.3335m  949.1921m 
  196.00000p  949.0904m  949.2660m  949.3515m  949.2139m 
  197.00000p  949.1121m  949.2868m  949.3694m  949.2357m 
  198.00000p  949.1337m  949.3075m  949.3873m  949.2575m 
  199.00000p  949.1554m  949.3282m  949.4053m  949.2793m 
  200.00000p  949.1770m  949.3489m  949.4232m  949.3011m 
  201.00000p  949.1987m  949.3697m  949.4411m  949.3229m 
  202.00000p  949.2204m  949.3904m  949.4591m  949.3447m 
  203.00000p  949.2420m  949.4111m  949.4770m  949.3665m 
  204.00000p  949.2637m  949.4319m  949.4950m  949.3883m 
  205.00000p  949.2854m  949.4526m  949.5129m  949.4102m 
  206.00000p  949.3056m  949.4719m  949.5296m  949.4305m 
  207.00000p  949.3180m  949.4835m  949.5394m  949.4427m 
  208.00000p  949.3305m  949.4950m  949.5492m  949.4548m 
  209.00000p  949.3429m  949.5066m  949.5590m  949.4670m 
  210.00000p  949.3553m  949.5181m  949.5688m  949.4791m 
  211.00000p  949.3677m  949.5296m  949.5786m  949.4913m 
  212.00000p  949.3801m  949.5412m  949.5884m  949.5034m 
  213.00000p  949.3925m  949.5527m  949.5982m  949.5156m 
  214.00000p  949.4049m  949.5643m  949.6080m  949.5277m 
  215.00000p  949.4173m  949.5758m  949.6178m  949.5398m 
  216.00000p  949.4297m  949.5873m  949.6276m  949.5520m 
  217.00000p  949.4421m  949.5989m  949.6374m  949.5641m 
  218.00000p  949.4545m  949.6104m  949.6471m  949.5763m 
  219.00000p  949.4669m  949.6220m  949.6569m  949.5884m 
  220.00000p  949.4793m  949.6335m  949.6667m  949.6006m 
  221.00000p  949.4917m  949.6451m  949.6765m  949.6127m 
  222.00000p  949.5041m  949.6566m  949.6863m  949.6249m 
  223.00000p  949.5165m  949.6681m  949.6961m  949.6370m 
  224.00000p  949.5289m  949.6797m  949.7059m  949.6492m 
  225.00000p  949.5413m  949.6912m  949.7157m  949.6613m 
  226.00000p  949.5537m  949.7028m  949.7255m  949.6735m 
  227.00000p  949.5661m  949.7143m  949.7353m  949.6856m 
  228.00000p  949.5785m  949.7258m  949.7451m  949.6978m 
  229.00000p  949.5909m  949.7374m  949.7549m  949.7099m 
  230.00000p  949.6034m  949.7489m  949.7647m  949.7221m 
  231.00000p  949.6158m  949.7605m  949.7745m  949.7342m 
  232.00000p  949.6282m  949.7720m  949.7843m  949.7464m 
  233.00000p  949.6406m  949.7835m  949.7941m  949.7585m 
  234.00000p  949.6530m  949.7951m  949.8039m  949.7707m 
  235.00000p  949.6654m  949.8066m  949.8136m  949.7828m 
  236.00000p  949.6778m  949.8182m  949.8234m  949.7950m 
  237.00000p  949.6902m  949.8297m  949.8332m  949.8071m 
  238.00000p  949.7026m  949.8413m  949.8430m  949.8193m 
  239.00000p  949.7150m  949.8528m  949.8528m  949.8314m 
  240.00000p  949.7274m  949.8643m  949.8626m  949.8436m 
  241.00000p  949.7398m  949.8759m  949.8724m  949.8557m 
  242.00000p  949.7522m  949.8874m  949.8822m  949.8679m 
  243.00000p  949.7567m  949.8913m  949.8863m  949.8732m 
  244.00000p  949.7597m  949.8938m  949.8893m  949.8772m 
  245.00000p  949.7627m  949.8962m  949.8923m  949.8812m 
  246.00000p  949.7656m  949.8987m  949.8952m  949.8852m 
  247.00000p  949.7686m  949.9012m  949.8982m  949.8892m 
  248.00000p  949.7716m  949.9036m  949.9012m  949.8932m 
  249.00000p  950.0010m  950.1388m  950.5783m  950.0201m 
  250.00000p  950.8126m  950.9723m  952.9887m  950.4628m 
  251.00000p  951.7178m  951.8873m  954.9625m  951.0808m 
  252.00000p  952.7092m  952.8620m  956.3444m  951.9146m 
  253.00000p  953.7393m  953.8525m  957.3275m  952.8833m 
  254.00000p  954.7693m  954.8431m  958.3106m  953.8520m 
  255.00000p  955.7994m  955.8336m  959.2936m  954.8208m 
  256.00000p  956.7832m  956.7787m  960.2397m  955.7909m 
  257.00000p  957.7477m  957.7046m  961.1701m  956.7616m 
  258.00000p  958.7121m  958.6305m  962.1005m  957.7323m 
  259.00000p  959.6765m  959.5564m  963.0310m  958.7030m 
  260.00000p  960.6409m  960.4823m  963.9614m  959.6737m 
  261.00000p  961.6054m  961.4082m  964.8919m  960.6445m 
  262.00000p  962.5698m  962.3341m  965.8223m  961.6152m 
  263.00000p  963.5342m  963.2600m  966.7527m  962.5859m 
  264.00000p  964.4986m  964.1859m  967.6832m  963.5566m 
  265.00000p  965.4630m  965.1118m  968.6136m  964.5273m 
  266.00000p  966.4275m  966.0377m  969.5441m  965.4980m 
  267.00000p  967.3189m  966.9184m  970.3882m  966.3311m 
  268.00000p  968.1285m  967.7484m  971.1359m  967.0101m 
  269.00000p  968.9382m  968.5784m  971.8836m  967.6891m 
  270.00000p  969.7479m  969.4084m  972.6313m  968.3682m 
  271.00000p  970.5576m  970.2384m  973.3790m  969.0472m 
  272.00000p  971.3673m  971.0685m  974.1267m  969.7262m 
  273.00000p  972.1770m  971.8985m  974.8744m  970.4053m 
  274.00000p  972.9867m  972.7285m  975.6221m  971.0843m 
  275.00000p  973.7964m  973.5585m  976.3698m  971.7633m 
  276.00000p  974.6060m  974.3885m  977.1175m  972.4424m 
  277.00000p  975.4157m  975.2185m  977.8652m  973.1214m 
  278.00000p  973.4229m  975.9250m  977.6625m  972.8615m 
