 ****** PrimeSim HSPICE -- T-2022.06-SP1 linux64 (Aug 19 2022 7764626) ******
  Copyright (c) 1986 - 2023 by Synopsys, Inc. All Rights Reserved.
  This software and the associated documentation are proprietary
  to Synopsys, Inc. This software may only be used in accordance
  with the terms and conditions of a written license agreement with
  Synopsys, Inc. All other use, reproduction, or distribution of
  this software is strictly prohibited.
  Input File: sram_writehh_power.sp                                             
  Command line options: /opt/synopsys/hspice/T-2022.06-SP1/hspice/linux64/hspice sram_writehh_power.sp
  Start time: Sun Jul  2 03:49:00 2023
 lic:  
 lic: FLEXlm: SDK_12.11.1 
 lic: USER:   yc2367               HOSTNAME: beluga 
 lic: HOSTID: 54802750             PID:      28781 
 lic: Using FLEXlm license file: 
 lic: 27000@flex.ece.cornell.edu 
 lic: Checkout 1 hspice 
 lic: License/Maintenance for hspice will expire on 09-jan-2025/2022.06 
 lic: 1(in_use)/50(total) FLOATING license(s) on SERVER 27000@flex.ece.cornell.edu 
 lic:   
  **info** (sram_writehh_power.sp:17) DC voltage reset to initial transient source value in source 0:vprecharge. new dc=0.9500D+00
  **warning** (nmos:xtgate1.mntgate (../basic_subcircuits.l:206)) Warning:  Acde = 0.245565 may be too small in BSIM4 model with w=2e-07 l=2.2e-08.
  **warning** (sram_writehh_power.sp:3383) Unable to find referenced node xprechargesa.n_1_2; Output variable ignored. Specify a valid node.
             
 Summary of Linear Res Distribution Info
 ---------------------------------------
 |Range          |Total     |Percent(%)|
 |---------------+----------+----------|
 |1e+00  ~  1e+03|1024      |100.0000  |
 ---------------------------------------
              
             
 Summary of Linear Cap Distribution Info
 ---------------------------------------
 |Range          |Total     |Percent(%)|
 |---------------+----------+----------|
 |1e-17  ~  1e-16|2048      |100.0000  |
 ---------------------------------------
              
             
 Summary of Detailed RC Type Statistics
 -------------------------
 |Element Type|Number    |
 |------------+----------|
 |Constant Res|1024      |
 |            |          |
 |Constant Cap|2048      |
 -------------------------
              
  

  **warning** the following singular supplies were terminated to 1 meg resistor 
          supply       node1            node2
(../process_data.l:43)vclmomtjn               0:vclmpmtj         defined in subckt 0                     0:0                defined in subckt 0               
(../process_data.l:38)vsupply                 0:vdd              defined in subckt 0                     0:0                defined in subckt 0               
(../process_data.l:42)vrefmtjn                0:vrefmtj          defined in subckt 0                     0:0                defined in subckt 0               
(../process_data.l:41)vsram                   0:vsram            defined in subckt 0                     0:0                defined in subckt 0               
(../process_data.l:44)vsram_n                 0:vsram_n          defined in subckt 0                     0:0                defined in subckt 0               
      
 **info** set option symb=1 internally to help for convergence.
 *****************************************************************
 ******  option summary
 ******
 runlvl  = 3         bypass  = 2.0000    
 **info** dc convergence successful at Newton-Raphson method 

   *** data name = sweep_data , index =     1 ***

 ******
 .title sram write power measurement circuit

 ****** transient analysis tnom=  25.000 temp=  25.000 ******
x

 time         voltage    voltage    voltage    voltage   
             tgate_l    tgate_r    n_bl_0     n_bl_128   
    0.        819.3235m   25.4554m  949.9989m  924.5035m 
    1.00000p  814.8663m   27.7546m  931.3852m  923.6335m 
    2.00000p  808.7951m   30.6429m  919.3685m  921.1010m 
    3.00000p  802.3261m   33.6278m  909.3570m  917.5953m 
    4.00000p  795.8970m   36.5969m  901.6376m  912.7152m 
    5.00000p  789.4680m   39.5660m  893.9183m  907.8351m 
    6.00000p  784.4322m   42.1613m  887.4413m  902.5230m 
    7.00000p  779.9336m   44.6124m  881.4434m  897.0443m 
    8.00000p  775.4350m   47.0636m  875.4455m  891.5656m 
    9.00000p  771.0718m   49.4937m  869.4933m  886.1126m 
   10.00000p  770.1982m   51.3819m  864.7200m  881.3220m 
   11.00000p  769.3246m   53.2702m  859.9468m  876.5314m 
   12.00000p  768.4510m   55.1584m  855.1735m  871.7408m 
   13.00000p  767.5775m   57.0466m  850.4002m  866.9502m 
   14.00000p  768.1822m   58.7636m  846.3833m  862.6534m 
   15.00000p  770.5439m   60.2771m  843.2652m  858.9435m 
   16.00000p  772.9057m   61.7906m  840.1471m  855.2336m 
   17.00000p  775.2675m   63.3041m  837.0291m  851.5236m 
   18.00000p  777.6292m   64.8176m  833.9110m  847.8137m 
   19.00000p  779.9910m   66.3311m  830.7930m  844.1037m 
   20.00000p  782.3527m   67.8446m  827.6749m  840.3938m 
   21.00000p  784.7084m   69.4715m  824.7784m  836.8850m 
   22.00000p  787.0293m   71.7442m  823.1432m  834.5214m 
   23.00000p  789.3502m   74.0169m  821.5080m  832.1578m 
   24.00000p  791.6711m   76.2896m  819.8728m  829.7942m 
   25.00000p  793.9921m   78.5624m  818.2376m  827.4306m 
   26.00000p  796.3130m   80.8351m  816.6024m  825.0670m 
   27.00000p  798.6339m   83.1078m  814.9672m  822.7034m 
   28.00000p  800.3192m   86.8277m  813.8214m  820.8185m 
   29.00000p  801.0186m   92.7925m  813.4348m  819.6762m 
   30.00000p  801.7180m   98.7572m  813.0482m  818.5340m 
   31.00000p  802.4173m  104.7220m  812.6616m  817.3917m 
   32.00000p  803.1167m  110.6868m  812.2750m  816.2495m 
   33.00000p  803.8160m  116.6515m  811.8884m  815.1072m 
   34.00000p  804.5154m  122.6163m  811.5018m  813.9649m 
   35.00000p  805.2148m  128.5811m  811.1152m  812.8227m 
   36.00000p  805.3353m  140.3750m  810.8241m  812.4036m 
   37.00000p  805.4037m  152.6929m  810.5415m  812.0496m 
   38.00000p  805.4721m  165.0109m  810.2590m  811.6956m 
   39.00000p  805.5406m  177.3288m  809.9764m  811.3416m 
   40.00000p  805.6090m  189.6467m  809.6938m  810.9876m 
   41.00000p  805.6775m  201.9647m  809.4113m  810.6335m 
   42.00000p  805.7459m  214.2826m  809.1287m  810.2795m 
   43.00000p  805.8144m  226.6005m  808.8462m  809.9255m 
   44.00000p  805.2825m  242.7938m  807.6513m  809.3140m 
   45.00000p  804.7098m  259.2508m  806.3944m  808.6850m 
   46.00000p  804.1371m  275.7078m  805.1376m  808.0559m 
   47.00000p  803.5644m  292.1648m  803.8807m  807.4269m 
   48.00000p  802.9917m  308.6218m  802.6238m  806.7979m 
   49.00000p  802.4190m  325.0787m  801.3669m  806.1688m 
   50.00000p  801.8463m  341.5357m  800.1100m  805.5398m 
   51.00000p  802.4325m  356.2288m  801.8001m  805.8434m 
   52.00000p  803.0187m  370.9219m  803.4902m  806.1469m 
   53.00000p  803.6050m  385.6150m  805.1803m  806.4505m 
   54.00000p  804.1912m  400.3081m  806.8704m  806.7541m 
   55.00000p  804.7774m  415.0011m  808.5605m  807.0576m 
   56.00000p  805.4423m  430.0781m  810.2724m  807.4328m 
   57.00000p  806.2266m  445.7371m  812.0174m  807.9166m 
   58.00000p  807.6748m  465.1821m  814.2473m  809.1152m 
   59.00000p  809.1235m  484.6299m  816.4776m  810.3143m 
   60.00000p  810.5722m  504.0777m  818.7079m  811.5135m 
   61.00000p  812.0209m  523.5255m  820.9382m  812.7126m 
   62.00000p  813.9275m  544.0488m  823.5050m  814.4102m 
   63.00000p  816.2478m  565.5443m  826.3759m  816.5584m 
   64.00000p  818.5682m  587.0397m  829.2469m  818.7065m 
   65.00000p  820.8885m  608.5352m  832.1178m  820.8547m 
   66.00000p  823.2089m  630.0306m  834.9888m  823.0028m 
   67.00000p  825.8515m  649.2957m  838.0182m  825.4866m 
   68.00000p  828.8263m  666.2622m  841.2110m  828.3165m 
   69.00000p  831.8011m  683.2287m  844.4038m  831.1463m 
   70.00000p  834.7759m  700.1952m  847.5966m  833.9761m 
   71.00000p  837.7508m  717.1618m  850.7894m  836.8059m 
   72.00000p  840.7256m  734.1283m  853.9822m  839.6357m 
   73.00000p  843.8343m  747.2111m  857.1246m  842.6411m 
   74.00000p  847.0314m  757.7322m  860.2337m  845.7624m 
   75.00000p  850.2285m  768.2533m  863.3428m  848.8836m 
   76.00000p  853.4256m  778.7744m  866.4520m  852.0049m 
   77.00000p  856.6227m  789.2956m  869.5611m  855.1262m 
   78.00000p  859.8198m  799.8167m  872.6703m  858.2474m 
   79.00000p  863.0169m  810.3378m  875.7794m  861.3687m 
   80.00000p  865.9134m  816.8128m  878.3997m  864.2554m 
   81.00000p  868.7902m  823.0235m  880.9881m  867.1267m 
   82.00000p  871.6670m  829.2342m  883.5764m  869.9981m 
   83.00000p  874.5438m  835.4448m  886.1648m  872.8694m 
   84.00000p  877.4207m  841.6555m  888.7532m  875.7408m 
   85.00000p  880.2975m  847.8662m  891.3415m  878.6121m 
   86.00000p  883.1743m  854.0769m  893.9299m  881.4835m 
   87.00000p  886.0511m  860.2876m  896.5182m  884.3548m 
   88.00000p  888.9279m  866.4983m  899.1066m  887.2262m 
   89.00000p  891.6859m  872.2273m  901.5681m  889.9864m 
   90.00000p  893.9404m  875.9148m  903.4918m  892.2755m 
   91.00000p  896.1948m  879.6023m  905.4156m  894.5645m 
   92.00000p  898.4493m  883.2898m  907.3393m  896.8536m 
   93.00000p  900.7038m  886.9773m  909.2630m  899.1426m 
   94.00000p  902.9582m  890.6648m  911.1868m  901.4317m 
   95.00000p  905.2127m  894.3523m  913.1105m  903.7207m 
   96.00000p  907.4671m  898.0398m  915.0343m  906.0098m 
   97.00000p  909.2286m  900.6548m  916.5224m  907.8163m 
   98.00000p  910.6771m  902.5889m  917.7338m  909.3163m 
   99.00000p  912.1256m  904.5230m  918.9453m  910.8163m 
  100.00000p  913.5741m  906.4571m  920.1568m  912.3163m 
  101.00000p  915.0226m  908.3912m  921.3683m  913.8163m 
  102.00000p  916.4711m  910.3253m  922.5798m  915.3164m 
  103.00000p  917.9196m  912.2593m  923.7913m  916.8164m 
  104.00000p  919.3681m  914.1934m  925.0028m  918.3164m 
  105.00000p  920.8166m  916.1275m  926.2143m  919.8164m 
  106.00000p  922.2651m  918.0616m  927.4258m  921.3165m 
  107.00000p  923.7136m  919.9957m  928.6373m  922.8165m 
  108.00000p  925.1621m  921.9298m  929.8488m  924.3165m 
  109.00000p  926.6106m  923.8639m  931.0603m  925.8165m 
  110.00000p  928.0591m  925.7979m  932.2718m  927.3165m 
  111.00000p  929.5076m  927.7320m  933.4832m  928.8166m 
  112.00000p  930.9017m  929.5805m  934.6480m  930.2608m 
  113.00000p  931.6426m  930.4004m  935.2515m  931.0350m 
  114.00000p  932.3835m  931.2202m  935.8549m  931.8092m 
  115.00000p  933.1244m  932.0401m  936.4583m  932.5833m 
  116.00000p  933.8653m  932.8599m  937.0618m  933.3575m 
  117.00000p  934.6061m  933.6798m  937.6652m  934.1316m 
  118.00000p  935.3470m  934.4996m  938.2686m  934.9058m 
  119.00000p  936.0879m  935.3195m  938.8721m  935.6799m 
  120.00000p  936.8288m  936.1393m  939.4755m  936.4541m 
  121.00000p  937.5697m  936.9592m  940.0789m  937.2282m 
  122.00000p  938.3106m  937.7790m  940.6824m  938.0024m 
  123.00000p  939.0514m  938.5989m  941.2858m  938.7765m 
  124.00000p  939.7090m  939.3238m  941.8212m  939.4638m 
  125.00000p  940.0480m  939.6857m  942.0963m  939.8184m 
  126.00000p  940.3869m  940.0475m  942.3713m  940.1731m 
  127.00000p  940.7258m  940.4093m  942.6464m  940.5278m 
  128.00000p  941.0647m  940.7711m  942.9215m  940.8824m 
  129.00000p  941.4037m  941.1330m  943.1965m  941.2371m 
  130.00000p  941.7426m  941.4948m  943.4716m  941.5918m 
  131.00000p  942.0815m  941.8566m  943.7467m  941.9464m 
  132.00000p  942.4204m  942.2184m  944.0218m  942.3011m 
  133.00000p  942.7593m  942.5803m  944.2968m  942.6558m 
  134.00000p  943.0983m  942.9421m  944.5719m  943.0104m 
  135.00000p  943.4372m  943.3039m  944.8470m  943.3651m 
  136.00000p  943.7761m  943.6657m  945.1220m  943.7197m 
  137.00000p  944.1150m  944.0276m  945.3971m  944.0744m 
  138.00000p  944.4540m  944.3894m  945.6722m  944.4291m 
  139.00000p  944.7929m  944.7512m  945.9472m  944.7837m 
  140.00000p  945.1318m  945.1130m  946.2223m  945.1384m 
  141.00000p  945.4707m  945.4749m  946.4974m  945.4931m 
  142.00000p  945.8096m  945.8367m  946.7724m  945.8477m 
  143.00000p  946.1486m  946.1985m  947.0475m  946.2024m 
  144.00000p  946.4875m  946.5603m  947.3226m  946.5571m 
  145.00000p  946.7204m  946.8085m  947.5109m  946.8002m 
  146.00000p  946.8192m  946.9130m  947.5895m  946.9022m 
  147.00000p  946.9181m  947.0176m  947.6681m  947.0042m 
  148.00000p  947.0170m  947.1221m  947.7467m  947.1062m 
  149.00000p  947.1158m  947.2266m  947.8254m  947.2082m 
  150.00000p  947.2147m  947.3311m  947.9040m  947.3102m 
  151.00000p  947.3135m  947.4356m  947.9826m  947.4122m 
  152.00000p  947.4124m  947.5401m  948.0612m  947.5142m 
  153.00000p  947.5112m  947.6446m  948.1398m  947.6162m 
  154.00000p  947.6101m  947.7491m  948.2185m  947.7183m 
  155.00000p  947.7089m  947.8536m  948.2971m  947.8203m 
  156.00000p  947.8078m  947.9581m  948.3757m  947.9223m 
  157.00000p  947.9066m  948.0627m  948.4543m  948.0243m 
  158.00000p  948.0055m  948.1672m  948.5329m  948.1263m 
  159.00000p  948.1044m  948.2717m  948.6115m  948.2283m 
  160.00000p  948.2032m  948.3762m  948.6902m  948.3303m 
  161.00000p  948.3021m  948.4807m  948.7688m  948.4323m 
  162.00000p  948.4009m  948.5852m  948.8474m  948.5344m 
  163.00000p  948.4998m  948.6897m  948.9260m  948.6364m 
  164.00000p  948.5986m  948.7942m  949.0046m  948.7384m 
  165.00000p  948.6975m  948.8987m  949.0833m  948.8404m 
  166.00000p  948.7963m  949.0032m  949.1619m  948.9424m 
  167.00000p  948.8332m  949.0402m  949.1910m  948.9798m 
  168.00000p  948.8587m  949.0647m  949.2111m  949.0053m 
  169.00000p  948.8842m  949.0892m  949.2312m  949.0307m 
  170.00000p  948.9097m  949.1137m  949.2512m  949.0562m 
  171.00000p  948.9351m  949.1381m  949.2713m  949.0817m 
  172.00000p  948.9606m  949.1626m  949.2914m  949.1072m 
  173.00000p  948.9861m  949.1871m  949.3114m  949.1326m 
  174.00000p  949.0116m  949.2116m  949.3315m  949.1581m 
  175.00000p  949.0370m  949.2361m  949.3515m  949.1836m 
  176.00000p  949.0625m  949.2606m  949.3716m  949.2091m 
  177.00000p  949.0880m  949.2851m  949.3917m  949.2345m 
  178.00000p  949.1135m  949.3096m  949.4117m  949.2600m 
  179.00000p  949.1389m  949.3341m  949.4318m  949.2855m 
  180.00000p  949.1644m  949.3585m  949.4518m  949.3110m 
  181.00000p  949.1899m  949.3830m  949.4719m  949.3364m 
  182.00000p  949.2154m  949.4075m  949.4920m  949.3619m 
  183.00000p  949.2409m  949.4320m  949.5120m  949.3874m 
  184.00000p  949.2663m  949.4565m  949.5321m  949.4129m 
  185.00000p  949.2918m  949.4810m  949.5521m  949.4383m 
  186.00000p  949.3173m  949.5055m  949.5722m  949.4638m 
  187.00000p  949.3428m  949.5300m  949.5923m  949.4893m 
  188.00000p  949.3682m  949.5545m  949.6123m  949.5148m 
  189.00000p  949.3937m  949.5790m  949.6324m  949.5402m 
  190.00000p  949.4192m  949.6034m  949.6524m  949.5657m 
  191.00000p  949.4447m  949.6279m  949.6725m  949.5912m 
  192.00000p  949.4702m  949.6524m  949.6926m  949.6167m 
  193.00000p  949.4956m  949.6769m  949.7126m  949.6421m 
  194.00000p  949.5211m  949.7014m  949.7327m  949.6676m 
  195.00000p  949.5466m  949.7259m  949.7527m  949.6931m 
  196.00000p  949.5721m  949.7504m  949.7728m  949.7186m 
  197.00000p  949.5975m  949.7749m  949.7929m  949.7440m 
  198.00000p  949.6230m  949.7994m  949.8129m  949.7695m 
  199.00000p  949.6485m  949.8238m  949.8330m  949.7950m 
  200.00000p  949.6740m  949.8483m  949.8531m  949.8205m 
  201.00000p  949.6994m  949.8728m  949.8731m  949.8459m 
  202.00000p  949.7249m  949.8973m  949.8932m  949.8714m 
  203.00000p  949.7369m  949.9083m  949.9022m  949.8830m 
  204.00000p  949.7392m  949.9095m  949.9031m  949.8844m 
  205.00000p  949.7414m  949.9107m  949.9041m  949.8859m 
  206.00000p  949.7437m  949.9119m  949.9051m  949.8874m 
  207.00000p  949.7460m  949.9132m  949.9060m  949.8888m 
  208.00000p  949.7482m  949.9144m  949.9070m  949.8903m 
  209.00000p  949.7505m  949.9156m  949.9080m  949.8918m 
  210.00000p  949.7527m  949.9168m  949.9089m  949.8932m 
  211.00000p  949.7550m  949.9180m  949.9099m  949.8947m 
  212.00000p  949.7573m  949.9192m  949.9109m  949.8962m 
  213.00000p  949.7595m  949.9204m  949.9118m  949.8976m 
  214.00000p  949.7618m  949.9217m  949.9128m  949.8991m 
  215.00000p  949.7641m  949.9229m  949.9138m  949.9006m 
  216.00000p  949.7663m  949.9241m  949.9147m  949.9020m 
  217.00000p  949.7686m  949.9253m  949.9157m  949.9035m 
  218.00000p  949.7708m  949.9265m  949.9167m  949.9050m 
  219.00000p  949.7731m  949.9277m  949.9177m  949.9064m 
  220.00000p  949.7754m  949.9289m  949.9186m  949.9079m 
  221.00000p  949.7776m  949.9302m  949.9196m  949.9094m 
  222.00000p  949.7799m  949.9314m  949.9206m  949.9108m 
  223.00000p  949.7821m  949.9326m  949.9215m  949.9123m 
  224.00000p  949.7844m  949.9338m  949.9225m  949.9138m 
  225.00000p  949.7867m  949.9350m  949.9235m  949.9152m 
  226.00000p  949.7889m  949.9362m  949.9244m  949.9167m 
  227.00000p  949.7912m  949.9374m  949.9254m  949.9182m 
  228.00000p  949.7932m  949.9385m  949.9262m  949.9193m 
  229.00000p  949.7947m  949.9393m  949.9268m  949.9199m 
  230.00000p  949.7963m  949.9401m  949.9274m  949.9204m 
  231.00000p  949.7979m  949.9408m  949.9279m  949.9210m 
  232.00000p  949.7994m  949.9416m  949.9285m  949.9216m 
  233.00000p  949.8010m  949.9424m  949.9291m  949.9221m 
  234.00000p  949.8026m  949.9432m  949.9297m  949.9227m 
  235.00000p  949.8041m  949.9440m  949.9303m  949.9233m 
  236.00000p  949.8057m  949.9448m  949.9308m  949.9238m 
  237.00000p  949.8073m  949.9456m  949.9314m  949.9244m 
  238.00000p  949.8088m  949.9463m  949.9320m  949.9250m 
  239.00000p  949.9131m  950.0482m  950.1101m  950.0085m 
  240.00000p  950.9420m  951.0600m  951.8865m  950.8388m 
  241.00000p  951.9709m  952.0717m  953.6629m  951.6691m 
  242.00000p  952.9997m  953.0835m  955.4393m  952.4994m 
  243.00000p  954.0286m  954.0952m  957.2157m  953.3297m 
  244.00000p  955.0838m  955.1281m  958.7364m  954.2249m 
  245.00000p  956.1579m  956.1760m  960.0739m  955.1665m 
  246.00000p  957.2416m  957.2099m  961.0804m  956.2310m 
  247.00000p  958.3257m  958.2431m  962.0698m  957.3018m 
  248.00000p  959.4098m  959.2762m  963.0593m  958.3726m 
  249.00000p  960.4940m  960.3094m  964.0487m  959.4434m 
  250.00000p  961.5781m  961.3426m  965.0381m  960.5142m 
  251.00000p  962.5809m  962.3488m  966.0127m  961.4537m 
  252.00000p  963.5534m  963.3451m  966.9818m  962.3445m 
  253.00000p  964.5259m  964.3414m  967.9510m  963.2353m 
  254.00000p  965.4984m  965.3377m  968.9201m  964.1261m 
  255.00000p  966.4709m  966.3340m  969.8892m  965.0169m 
  256.00000p  967.4434m  967.3302m  970.8583m  965.9077m 
  257.00000p  968.4159m  968.3265m  971.8275m  966.7984m 
  258.00000p  969.3884m  969.3228m  972.7966m  967.6892m 
  259.00000p  970.3609m  970.3191m  973.7657m  968.5800m 
  260.00000p  971.3334m  971.3154m  974.7349m  969.4708m 
  261.00000p  972.3059m  972.3116m  975.7040m  970.3616m 
  262.00000p  973.2784m  973.3079m  976.6731m  971.2524m 
  263.00000p  974.2509m  974.3042m  977.6422m  972.1432m 
  264.00000p  975.2234m  975.3005m  978.6114m  973.0339m 
  265.00000p  976.1959m  976.2968m  979.5805m  973.9247m 
  266.00000p  977.1684m  977.2930m  980.5496m  974.8155m 
  267.00000p  978.0951m  978.2874m  981.5018m  975.6898m 
  268.00000p  976.6797m  979.1854m  981.5882m  975.7198m 
  269.00000p  975.2643m  980.0833m  981.6745m  975.7498m 
  270.00000p  973.8490m  980.9812m  981.7608m  975.7798m 
  271.00000p  972.4336m  981.8792m  981.8471m  975.8098m 
  272.00000p  971.0182m  982.7771m  981.9335m  975.8398m 
  273.00000p  969.6028m  983.6750m  982.0198m  975.8697m 
  274.00000p  968.1874m  984.5730m  982.1061m  975.8997m 
  275.00000p  966.7720m  985.4709m  982.1925m  975.9297m 
  276.00000p  965.3567m  986.3689m  982.2788m  975.9597m 
  277.00000p  959.5471m  987.1420m  980.6780m  974.7247m 
  278.00000p  951.3108m  987.8461m  978.1455m  972.7912m 
