 ****** PrimeSim HSPICE -- T-2022.06-SP1 linux64 (Aug 19 2022 7764626) ******
  Copyright (c) 1986 - 2023 by Synopsys, Inc. All Rights Reserved.
  This software and the associated documentation are proprietary
  to Synopsys, Inc. This software may only be used in accordance
  with the terms and conditions of a written license agreement with
  Synopsys, Inc. All other use, reproduction, or distribution of
  this software is strictly prohibited.
  Input File: sram_writelh_power.sp                                             
  Command line options: /opt/synopsys/hspice/T-2022.06-SP1/hspice/linux64/hspice sram_writelh_power.sp
  Start time: Fri Jul  7 09:07:39 2023
 lic:  
 lic: FLEXlm: SDK_12.11.1 
 lic: USER:   yc2367               HOSTNAME: beluga 
 lic: HOSTID: 54802750             PID:      19082 
 lic: Using FLEXlm license file: 
 lic: 27000@flex.ece.cornell.edu 
 lic: Checkout 1 hspice 
 lic: License/Maintenance for hspice will expire on 09-jan-2025/2022.06 
 lic: 1(in_use)/50(total) FLOATING license(s) on SERVER 27000@flex.ece.cornell.edu 
 lic:   
  **info** (sram_writelh_power.sp:18) DC voltage reset to initial transient source value in source 0:vdatain. new dc=0.9500D+00
  **warning** (sram_writelh_power.sp:18) pulse rise time is  < or = zero, reset to tstep
  **warning** (sram_writelh_power.sp:18) pulse fall time is  < or = zero, reset to tstep
  **warning** (nmos:xtgate1.mntgate (../basic_subcircuits.l:206)) Warning:  Acde = 0.245565 may be too small in BSIM4 model with w=2e-07 l=2.2e-08.
  **warning** (sram_writelh_power.sp:3384) Unable to find referenced node xprechargesa.n_1_2; Output variable ignored. Specify a valid node.
             
 Summary of Linear Res Distribution Info
 ---------------------------------------
 |Range          |Total     |Percent(%)|
 |---------------+----------+----------|
 |1e+00  ~  1e+03|1024      |100.0000  |
 ---------------------------------------
              
             
 Summary of Linear Cap Distribution Info
 ---------------------------------------
 |Range          |Total     |Percent(%)|
 |---------------+----------+----------|
 |1e-17  ~  1e-16|2048      |100.0000  |
 ---------------------------------------
              
             
 Summary of Detailed RC Type Statistics
 -------------------------
 |Element Type|Number    |
 |------------+----------|
 |Constant Res|1024      |
 |            |          |
 |Constant Cap|2048      |
 -------------------------
              
  

  **warning** the following singular supplies were terminated to 1 meg resistor 
          supply       node1            node2
(../process_data.l:43)vclmomtjn               0:vclmpmtj         defined in subckt 0                     0:0                defined in subckt 0               
(../process_data.l:38)vsupply                 0:vdd              defined in subckt 0                     0:0                defined in subckt 0               
(../process_data.l:42)vrefmtjn                0:vrefmtj          defined in subckt 0                     0:0                defined in subckt 0               
(../process_data.l:41)vsram                   0:vsram            defined in subckt 0                     0:0                defined in subckt 0               
(../process_data.l:44)vsram_n                 0:vsram_n          defined in subckt 0                     0:0                defined in subckt 0               
      
 **info** set option symb=1 internally to help for convergence.
 *****************************************************************
 ******  option summary
 ******
 runlvl  = 3         bypass  = 2.0000    
 **info** dc convergence successful at Newton-Raphson method 

   *** data name = sweep_data , index =     1 ***

 ******
 .title sram write power measurement circuit

 ****** transient analysis tnom=  25.000 temp=  25.000 ******
x

 time         voltage    voltage    voltage    voltage   
             tgate_l    tgate_r    n_bl_0     n_bl_128   
    0.        819.3235m   25.4554m  949.9989m  924.5035m 
    1.00000p  794.7324m   27.2615m  929.7598m  923.4799m 
    2.00000p  826.1859m   33.7967m  917.8593m  921.3540m 
    3.00000p  847.0494m   37.1760m  912.0021m  917.5120m 
    4.00000p  864.7104m   39.6597m  907.3522m  913.4510m 
    5.00000p  873.8657m   39.8805m  904.9380m  909.5512m 
    6.00000p  883.0210m   40.1014m  902.5239m  905.6514m 
    7.00000p  889.8223m   39.8549m  900.4119m  902.3869m 
    8.00000p  892.5419m   38.7981m  898.8240m  900.2239m 
    9.00000p  895.2615m   37.7413m  897.2361m  898.0609m 
   10.00000p  897.9811m   36.6845m  895.6481m  895.8979m 
   11.00000p  898.7327m   35.7159m  894.2851m  894.4995m 
   12.00000p  898.6286m   34.7856m  893.0198m  893.4336m 
   13.00000p  898.5246m   33.8553m  891.7546m  892.3677m 
   14.00000p  898.4205m   32.9250m  890.4893m  891.3018m 
   15.00000p  898.3165m   31.9947m  889.2240m  890.2359m 
   16.00000p  897.8613m   31.4106m  888.0777m  889.3077m 
   17.00000p  896.9886m   31.2383m  887.0727m  888.5432m 
   18.00000p  896.1159m   31.0659m  886.0678m  887.7786m 
   19.00000p  895.2432m   30.8936m  885.0628m  887.0141m 
   20.00000p  894.3705m   30.7212m  884.0579m  886.2496m 
   21.00000p  893.4979m   30.5489m  883.0529m  885.4851m 
   22.00000p  892.6252m   30.3765m  882.0479m  884.7206m 
   23.00000p  891.6923m   31.3502m  880.8663m  883.8528m 
   24.00000p  890.7196m   33.0842m  879.5673m  882.9165m 
   25.00000p  889.7468m   34.8181m  878.2684m  881.9802m 
   26.00000p  888.7741m   36.5520m  876.9695m  881.0439m 
   27.00000p  887.8013m   38.2859m  875.6706m  880.1076m 
   28.00000p  886.8285m   40.0198m  874.3717m  879.1713m 
   29.00000p  885.8558m   41.7538m  873.0728m  878.2349m 
   30.00000p  884.6426m   45.9448m  871.3480m  876.9958m 
   31.00000p  883.1959m   52.5215m  869.2098m  875.4628m 
   32.00000p  881.7492m   59.0982m  867.0716m  873.9297m 
   33.00000p  880.3025m   65.6749m  864.9334m  872.3967m 
   34.00000p  878.8558m   72.2516m  862.7952m  870.8636m 
   35.00000p  877.4091m   78.8283m  860.6570m  869.3305m 
   36.00000p  875.9624m   85.4050m  858.5189m  867.7975m 
   37.00000p  873.7331m   98.5759m  855.7667m  865.5158m 
   38.00000p  871.4236m  112.4230m  852.9517m  863.1573m 
   39.00000p  869.1140m  126.2701m  850.1366m  860.7989m 
   40.00000p  866.8045m  140.1173m  847.3216m  858.4404m 
   41.00000p  864.4949m  153.9644m  844.5065m  856.0820m 
   42.00000p  862.1854m  167.8115m  841.6914m  853.7235m 
   43.00000p  859.8758m  181.6586m  838.8764m  851.3650m 
   44.00000p  857.3828m  196.5354m  835.9911m  848.8726m 
   45.00000p  854.3168m  214.6276m  832.8866m  845.9619m 
   46.00000p  851.2508m  232.7198m  829.7820m  843.0512m 
   47.00000p  848.1848m  250.8120m  826.6775m  840.1405m 
   48.00000p  845.1188m  268.9042m  823.5730m  837.2297m 
   49.00000p  842.0528m  286.9964m  820.4684m  834.3190m 
   50.00000p  838.9868m  305.0885m  817.3639m  831.4083m 
   51.00000p  836.6501m  321.8974m  818.0803m  829.0722m 
   52.00000p  834.4154m  338.5173m  818.6709m  826.8433m 
   53.00000p  832.5406m  354.8615m  819.1140m  825.0350m 
   54.00000p  831.2871m  371.2350m  819.6861m  824.0075m 
   55.00000p  830.0335m  387.6085m  820.2582m  822.9801m 
   56.00000p  828.7800m  403.9820m  820.8303m  821.9526m 
   57.00000p  828.1252m  422.1058m  821.9233m  821.6612m 
   58.00000p  827.9207m  441.5458m  823.4081m  821.9232m 
   59.00000p  827.7162m  460.9859m  824.8929m  822.1853m 
   60.00000p  827.5117m  480.4259m  826.3777m  822.4474m 
   61.00000p  827.8142m  501.0065m  828.2090m  823.1683m 
   62.00000p  828.9048m  523.3598m  830.5787m  824.6024m 
   63.00000p  829.9954m  545.7131m  832.9484m  826.0366m 
   64.00000p  831.0860m  568.0663m  835.3182m  827.4707m 
   65.00000p  832.1766m  590.4196m  837.6879m  828.9048m 
   66.00000p  833.2672m  612.7729m  840.0577m  830.3389m 
   67.00000p  834.9528m  633.4433m  842.7008m  832.2956m 
   68.00000p  837.1426m  652.6875m  845.5757m  834.6952m 
   69.00000p  839.3324m  671.9318m  848.4505m  837.0948m 
   70.00000p  841.5222m  691.1761m  851.3253m  839.4943m 
   71.00000p  843.7120m  710.4204m  854.2002m  841.8939m 
   72.00000p  845.9018m  729.6646m  857.0750m  844.2935m 
   73.00000p  848.5564m  742.4857m  859.9758m  847.0644m 
   74.00000p  851.2761m  754.4082m  862.8801m  849.8872m 
   75.00000p  853.9958m  766.3307m  865.7845m  852.7100m 
   76.00000p  856.7155m  778.2532m  868.6889m  855.5328m 
   77.00000p  859.4352m  790.1757m  871.5932m  858.3556m 
   78.00000p  862.1549m  802.0981m  874.4976m  861.1784m 
   79.00000p  864.8746m  814.0206m  877.4020m  864.0012m 
   80.00000p  867.5770m  824.1646m  880.1746m  866.7882m 
   81.00000p  870.2392m  830.1804m  882.6416m  869.4919m 
   82.00000p  872.9014m  836.1962m  885.1086m  872.1956m 
   83.00000p  875.5636m  842.2120m  887.5756m  874.8994m 
   84.00000p  878.2258m  848.2277m  890.0426m  877.6031m 
   85.00000p  880.8880m  854.2435m  892.5096m  880.3068m 
   86.00000p  883.5502m  860.2593m  894.9766m  883.0105m 
   87.00000p  886.2124m  866.2751m  897.4436m  885.7143m 
   88.00000p  888.8746m  872.2909m  899.9106m  888.4180m 
   89.00000p  891.5368m  878.3067m  902.3776m  891.1217m 
   90.00000p  893.9471m  883.0643m  904.5391m  893.5609m 
   91.00000p  895.9772m  885.9230m  906.2397m  895.6008m 
   92.00000p  898.0072m  888.7817m  907.9403m  897.6408m 
   93.00000p  900.0373m  891.6404m  909.6409m  899.6807m 
   94.00000p  902.0674m  894.4991m  911.3415m  901.7206m 
   95.00000p  904.0974m  897.3577m  913.0421m  903.7606m 
   96.00000p  906.1275m  900.2164m  914.7427m  905.8005m 
   97.00000p  908.1575m  903.0751m  916.4432m  907.8404m 
   98.00000p  910.1876m  905.9338m  918.1438m  909.8803m 
   99.00000p  912.2177m  908.7925m  919.8444m  911.9203m 
  100.00000p  914.2477m  911.6512m  921.5450m  913.9602m 
  101.00000p  916.2778m  914.5099m  923.2456m  916.0001m 
  102.00000p  917.7529m  916.3233m  924.4531m  917.4881m 
  103.00000p  918.9949m  917.6979m  925.4536m  918.7444m 
  104.00000p  920.2370m  919.0725m  926.4540m  920.0007m 
  105.00000p  921.4790m  920.4471m  927.4545m  921.2569m 
  106.00000p  922.7211m  921.8217m  928.4550m  922.5132m 
  107.00000p  923.9632m  923.1962m  929.4554m  923.7694m 
  108.00000p  925.2052m  924.5708m  930.4559m  925.0257m 
  109.00000p  926.4473m  925.9454m  931.4563m  926.2820m 
  110.00000p  927.6893m  927.3200m  932.4568m  927.5382m 
  111.00000p  928.9314m  928.6946m  933.4573m  928.7945m 
  112.00000p  930.1734m  930.0692m  934.4577m  930.0507m 
  113.00000p  931.4155m  931.4437m  935.4582m  931.3070m 
  114.00000p  932.5609m  932.6995m  936.3780m  932.4644m 
  115.00000p  933.1851m  933.3148m  936.8634m  933.0886m 
  116.00000p  933.8093m  933.9302m  937.3487m  933.7129m 
  117.00000p  934.4335m  934.5455m  937.8341m  934.3372m 
  118.00000p  935.0577m  935.1609m  938.3194m  934.9615m 
  119.00000p  935.6820m  935.7762m  938.8048m  935.5857m 
  120.00000p  936.3062m  936.3916m  939.2901m  936.2100m 
  121.00000p  936.9304m  937.0069m  939.7755m  936.8343m 
  122.00000p  937.5546m  937.6223m  940.2608m  937.4585m 
  123.00000p  938.1789m  938.2376m  940.7462m  938.0828m 
  124.00000p  938.8031m  938.8529m  941.2315m  938.7071m 
  125.00000p  939.4273m  939.4683m  941.7169m  939.3314m 
  126.00000p  940.0515m  940.0836m  942.2022m  939.9556m 
  127.00000p  940.6758m  940.6990m  942.6876m  940.5799m 
  128.00000p  941.3000m  941.3143m  943.1729m  941.2042m 
  129.00000p  941.9242m  941.9297m  943.6583m  941.8285m 
  130.00000p  942.5484m  942.5450m  944.1436m  942.4527m 
  131.00000p  943.1146m  943.1026m  944.5843m  943.0195m 
  132.00000p  943.3397m  943.3206m  944.7627m  943.2487m 
  133.00000p  943.5649m  943.5387m  944.9410m  943.4779m 
  134.00000p  943.7900m  943.7568m  945.1194m  943.7071m 
  135.00000p  944.0151m  943.9748m  945.2978m  943.9362m 
  136.00000p  944.2403m  944.1929m  945.4761m  944.1654m 
  137.00000p  944.4654m  944.4110m  945.6545m  944.3946m 
  138.00000p  944.6905m  944.6290m  945.8329m  944.6238m 
  139.00000p  944.9156m  944.8471m  946.0112m  944.8529m 
  140.00000p  945.1408m  945.0651m  946.1896m  945.0821m 
  141.00000p  945.3659m  945.2832m  946.3680m  945.3113m 
  142.00000p  945.5910m  945.5013m  946.5463m  945.5405m 
  143.00000p  945.8162m  945.7193m  946.7247m  945.7697m 
  144.00000p  946.0413m  945.9374m  946.9031m  945.9988m 
  145.00000p  946.2664m  946.1555m  947.0814m  946.2280m 
  146.00000p  946.4915m  946.3735m  947.2598m  946.4572m 
  147.00000p  946.7167m  946.5916m  947.4381m  946.6864m 
  148.00000p  946.9418m  946.8097m  947.6165m  946.9155m 
  149.00000p  947.1669m  947.0277m  947.7949m  947.1447m 
  150.00000p  947.3921m  947.2458m  947.9732m  947.3739m 
  151.00000p  947.6172m  947.4639m  948.1516m  947.6031m 
  152.00000p  947.8423m  947.6819m  948.3300m  947.8322m 
  153.00000p  948.0675m  947.9000m  948.5083m  948.0614m 
  154.00000p  948.1350m  947.9663m  948.5599m  948.1291m 
  155.00000p  948.1903m  948.0207m  948.6016m  948.1842m 
  156.00000p  948.2456m  948.0751m  948.6433m  948.2394m 
  157.00000p  948.3009m  948.1296m  948.6850m  948.2945m 
  158.00000p  948.3563m  948.1840m  948.7267m  948.3496m 
  159.00000p  948.4116m  948.2385m  948.7684m  948.4047m 
  160.00000p  948.4669m  948.2929m  948.8100m  948.4598m 
  161.00000p  948.5222m  948.3474m  948.8517m  948.5150m 
  162.00000p  948.5775m  948.4018m  948.8934m  948.5701m 
  163.00000p  948.6328m  948.4562m  948.9351m  948.6252m 
  164.00000p  948.6881m  948.5107m  948.9768m  948.6803m 
  165.00000p  948.7434m  948.5651m  949.0185m  948.7355m 
  166.00000p  948.7987m  948.6196m  949.0602m  948.7906m 
  167.00000p  948.8540m  948.6740m  949.1019m  948.8457m 
  168.00000p  948.9093m  948.7285m  949.1436m  948.9008m 
  169.00000p  948.9646m  948.7829m  949.1853m  948.9559m 
  170.00000p  949.0199m  948.8374m  949.2269m  949.0111m 
  171.00000p  949.0752m  948.8918m  949.2686m  949.0662m 
  172.00000p  949.1305m  948.9462m  949.3103m  949.1213m 
  173.00000p  949.1859m  949.0007m  949.3520m  949.1764m 
  174.00000p  949.2412m  949.0551m  949.3937m  949.2316m 
  175.00000p  949.2965m  949.1096m  949.4354m  949.2867m 
  176.00000p  949.3518m  949.1640m  949.4771m  949.3418m 
  177.00000p  949.4071m  949.2185m  949.5188m  949.3969m 
  178.00000p  949.4624m  949.2729m  949.5605m  949.4520m 
  179.00000p  949.5177m  949.3273m  949.6022m  949.5072m 
  180.00000p  949.5730m  949.3818m  949.6439m  949.5623m 
  181.00000p  949.6283m  949.4362m  949.6855m  949.6174m 
  182.00000p  949.6806m  949.4878m  949.7251m  949.6696m 
  183.00000p  949.6878m  949.4958m  949.7318m  949.6775m 
  184.00000p  949.6950m  949.5039m  949.7386m  949.6854m 
  185.00000p  949.7022m  949.5119m  949.7453m  949.6933m 
  186.00000p  949.7094m  949.5199m  949.7521m  949.7012m 
  187.00000p  949.7166m  949.5279m  949.7588m  949.7090m 
  188.00000p  949.7237m  949.5360m  949.7656m  949.7169m 
  189.00000p  949.7309m  949.5440m  949.7723m  949.7248m 
  190.00000p  949.7381m  949.5520m  949.7791m  949.7327m 
  191.00000p  949.7453m  949.5600m  949.7858m  949.7406m 
  192.00000p  949.7525m  949.5681m  949.7926m  949.7485m 
  193.00000p  949.7597m  949.5761m  949.7993m  949.7564m 
  194.00000p  949.7669m  949.5841m  949.8061m  949.7642m 
  195.00000p  949.7740m  949.5921m  949.8128m  949.7721m 
  196.00000p  949.7812m  949.6002m  949.8196m  949.7800m 
  197.00000p  949.7884m  949.6082m  949.8263m  949.7879m 
  198.00000p  949.7956m  949.6162m  949.8331m  949.7958m 
  199.00000p  949.8028m  949.6242m  949.8398m  949.8037m 
  200.00000p  949.8100m  949.6323m  949.8466m  949.8116m 
  201.00000p  949.8171m  949.6403m  949.8533m  949.8194m 
  202.00000p  949.8243m  949.6483m  949.8601m  949.8273m 
  203.00000p  949.8315m  949.6563m  949.8668m  949.8352m 
  204.00000p  949.8387m  949.6644m  949.8736m  949.8431m 
  205.00000p  949.8459m  949.6724m  949.8803m  949.8510m 
  206.00000p  949.8531m  949.6804m  949.8871m  949.8589m 
  207.00000p  949.8602m  949.6884m  949.8938m  949.8668m 
  208.00000p  949.8674m  949.6965m  949.9006m  949.8746m 
  209.00000p  949.8746m  949.7045m  949.9073m  949.8825m 
  210.00000p  949.8818m  949.7125m  949.9141m  949.8904m 
  211.00000p  949.8890m  949.7205m  949.9208m  949.8983m 
  212.00000p  949.8962m  949.7286m  949.9276m  949.9062m 
  213.00000p  949.9034m  949.7366m  949.9343m  949.9141m 
  214.00000p  949.9105m  949.7446m  949.9411m  949.9220m 
  215.00000p  949.9177m  949.7527m  949.9478m  949.9298m 
  216.00000p  949.9249m  949.7607m  949.9546m  949.9377m 
  217.00000p  949.9321m  949.7687m  949.9613m  949.9456m 
  218.00000p  949.9393m  949.7767m  949.9681m  949.9535m 
  219.00000p  949.9465m  949.7848m  949.9748m  949.9614m 
  220.00000p  949.9488m  949.7882m  949.9755m  949.9632m 
  221.00000p  949.9498m  949.7904m  949.9747m  949.9635m 
  222.00000p  949.9508m  949.7926m  949.9738m  949.9638m 
  223.00000p  949.9518m  949.7948m  949.9730m  949.9641m 
  224.00000p  949.9528m  949.7970m  949.9721m  949.9644m 
  225.00000p  949.9539m  949.7992m  949.9713m  949.9647m 
  226.00000p  949.9549m  949.8014m  949.9704m  949.9650m 
  227.00000p  949.9559m  949.8036m  949.9696m  949.9653m 
  228.00000p  949.9569m  949.8058m  949.9687m  949.9656m 
  229.00000p  949.9579m  949.8080m  949.9679m  949.9659m 
  230.00000p  949.9590m  949.8102m  949.9670m  949.9662m 
  231.00000p  949.9600m  949.8124m  949.9662m  949.9665m 
  232.00000p  949.9610m  949.8146m  949.9653m  949.9668m 
  233.00000p  949.9620m  949.8168m  949.9645m  949.9671m 
  234.00000p  949.9630m  949.8190m  949.9636m  949.9674m 
  235.00000p  949.9641m  949.8212m  949.9628m  949.9677m 
  236.00000p  949.9651m  949.8234m  949.9619m  949.9679m 
  237.00000p  949.9661m  949.8256m  949.9611m  949.9682m 
  238.00000p  949.9671m  949.8278m  949.9602m  949.9685m 
  239.00000p  950.0651m  949.9329m  950.1143m  950.0551m 
  240.00000p  951.0362m  950.9637m  951.6625m  950.9182m 
  241.00000p  952.0073m  951.9946m  953.2107m  951.7813m 
  242.00000p  952.9783m  953.0254m  954.7589m  952.6444m 
  243.00000p  953.9494m  954.0563m  956.3072m  953.5075m 
  244.00000p  954.9204m  955.0871m  957.8554m  954.3705m 
  245.00000p  955.8915m  956.1180m  959.4036m  955.2336m 
  246.00000p  956.8866m  957.1707m  960.6455m  956.1731m 
  247.00000p  957.8860m  958.2272m  961.8333m  957.1260m 
  248.00000p  958.8971m  959.2836m  962.8421m  958.1588m 
  249.00000p  959.9093m  960.3399m  963.8343m  959.1990m 
  250.00000p  960.9215m  961.3962m  964.8264m  960.2393m 
  251.00000p  961.9337m  962.4525m  965.8185m  961.2795m 
  252.00000p  962.9459m  963.5088m  966.8107m  962.3197m 
  253.00000p  963.9581m  964.5651m  967.8028m  963.3599m 
  254.00000p  964.7660m  965.0170m  968.5738m  964.0476m 
  255.00000p  965.4953m  965.2363m  969.2597m  964.5996m 
  256.00000p  966.2245m  965.4556m  969.9457m  965.1516m 
  257.00000p  966.9538m  965.6749m  970.6316m  965.7036m 
  258.00000p  967.6830m  965.8942m  971.3175m  966.2556m 
  259.00000p  968.4123m  966.1135m  972.0034m  966.8076m 
  260.00000p  969.1416m  966.3327m  972.6893m  967.3595m 
  261.00000p  969.8708m  966.5520m  973.3753m  967.9115m 
  262.00000p  970.6001m  966.7713m  974.0612m  968.4635m 
  263.00000p  971.3294m  966.9906m  974.7471m  969.0155m 
  264.00000p  972.0586m  967.2099m  975.4330m  969.5675m 
  265.00000p  972.7879m  967.4292m  976.1189m  970.1195m 
  266.00000p  973.5172m  967.6485m  976.8049m  970.6715m 
  267.00000p  974.2464m  967.8678m  977.4908m  971.2235m 
  268.00000p  974.9757m  968.0870m  978.1767m  971.7755m 
  269.00000p  975.7050m  968.3063m  978.8626m  972.3275m 
  270.00000p  976.4342m  968.5256m  979.5485m  972.8794m 
  271.00000p  977.1635m  968.7449m  980.2345m  973.4314m 
  272.00000p  977.8928m  968.9642m  980.9204m  973.9834m 
  273.00000p  978.6220m  969.1835m  981.6063m  974.5354m 
  274.00000p  978.9922m  965.0242m  981.9880m  974.4205m 
  275.00000p  979.3247m  960.4062m  982.3378m  974.2357m 
