 ****** PrimeSim HSPICE -- T-2022.06-SP1 linux64 (Aug 19 2022 7764626) ******
  Copyright (c) 1986 - 2023 by Synopsys, Inc. All Rights Reserved.
  This software and the associated documentation are proprietary
  to Synopsys, Inc. This software may only be used in accordance
  with the terms and conditions of a written license agreement with
  Synopsys, Inc. All other use, reproduction, or distribution of
  this software is strictly prohibited.
  Input File: sram_writep_power.sp                                              
  Command line options: /opt/synopsys/hspice/T-2022.06-SP1/hspice/linux64/hspice sram_writep_power.sp
  Start time: Sat Jul  1 18:32:38 2023
 lic:  
 lic: FLEXlm: SDK_12.11.1 
 lic: USER:   yc2367               HOSTNAME: beluga 
 lic: HOSTID: 54802750             PID:      28003 
 lic: Using FLEXlm license file: 
 lic: 27000@flex.ece.cornell.edu 
 lic: Checkout 1 hspice 
 lic: License/Maintenance for hspice will expire on 09-jan-2025/2022.06 
 lic: 1(in_use)/50(total) FLOATING license(s) on SERVER 27000@flex.ece.cornell.edu 
 lic:   
  **info** (sram_writep_power.sp:18) DC voltage reset to initial transient source value in source 0:vdatain. new dc=0.9500D+00
  **warning** (sram_writep_power.sp:18) pulse rise time is  < or = zero, reset to tstep
  **warning** (sram_writep_power.sp:18) pulse fall time is  < or = zero, reset to tstep
  **warning** (nmos:xtgate1.mntgate (../basic_subcircuits.l:206)) Warning:  Acde = 0.245565 may be too small in BSIM4 model with w=2e-07 l=2.2e-08.
  **warning** (sram_writep_power.sp:3384) Unable to find referenced node xprechargesa.n_1_2; Output variable ignored. Specify a valid node.
             
 Summary of Linear Res Distribution Info
 ---------------------------------------
 |Range          |Total     |Percent(%)|
 |---------------+----------+----------|
 |1e+00  ~  1e+03|1024      |100.0000  |
 ---------------------------------------
              
             
 Summary of Linear Cap Distribution Info
 ---------------------------------------
 |Range          |Total     |Percent(%)|
 |---------------+----------+----------|
 |1e-17  ~  1e-16|2048      |100.0000  |
 ---------------------------------------
              
             
 Summary of Detailed RC Type Statistics
 -------------------------
 |Element Type|Number    |
 |------------+----------|
 |Constant Res|1024      |
 |            |          |
 |Constant Cap|2048      |
 -------------------------
              
  

  **warning** the following singular supplies were terminated to 1 meg resistor 
          supply       node1            node2
(../process_data.l:43)vclmomtjn               0:vclmpmtj         defined in subckt 0                     0:0                defined in subckt 0               
(../process_data.l:38)vsupply                 0:vdd              defined in subckt 0                     0:0                defined in subckt 0               
(../process_data.l:42)vrefmtjn                0:vrefmtj          defined in subckt 0                     0:0                defined in subckt 0               
(../process_data.l:41)vsram                   0:vsram            defined in subckt 0                     0:0                defined in subckt 0               
(../process_data.l:44)vsram_n                 0:vsram_n          defined in subckt 0                     0:0                defined in subckt 0               
      
 **info** set option symb=1 internally to help for convergence.
 *****************************************************************
 ******  option summary
 ******
 runlvl  = 3         bypass  = 2.0000    
 **info** dc convergence successful at Newton-Raphson method 

   *** data name = sweep_data , index =     1 ***

 ******
 .title sram write power measurement circuit

 ****** transient analysis tnom=  25.000 temp=  25.000 ******
x

 time         voltage    voltage    voltage    voltage   
             tgate_l    tgate_r    n_bl_0     n_bl_128   
    0.        949.9992m  421.1129n  949.9997m  924.5043m 
    1.00000p  898.3412m  314.4090u  938.5083m  924.3304m 
    2.00000p  902.3871m    6.5703m  930.8679m  923.6223m 
    3.00000p  904.9660m   10.9774m  926.3454m  921.8245m 
    4.00000p  907.2494m   15.0011m  922.3164m  919.8776m 
    5.00000p  908.2306m   17.3828m  919.7963m  917.7029m 
    6.00000p  909.2119m   19.7644m  917.2762m  915.5282m 
    7.00000p  910.0864m   22.1029m  914.8294m  913.4205m 
    8.00000p  909.9804m   24.0442m  913.0563m  911.9286m 
    9.00000p  909.8743m   25.9854m  911.2832m  910.4368m 
   10.00000p  909.7683m   27.9267m  909.5102m  908.9449m 
   11.00000p  909.4170m   29.8284m  907.8998m  907.6450m 
   12.00000p  908.6333m   31.6603m  906.5764m  906.6839m 
   13.00000p  907.8495m   33.4922m  905.2531m  905.7227m 
   14.00000p  907.0658m   35.3241m  903.9297m  904.7616m 
   15.00000p  906.2821m   37.1560m  902.6064m  903.8005m 
   16.00000p  905.4983m   38.9879m  901.2830m  902.8394m 
   17.00000p  904.4768m   38.8795m  900.1740m  901.9954m 
   18.00000p  903.4312m   38.5743m  899.0868m  901.1633m 
   19.00000p  902.3856m   38.2692m  897.9995m  900.3312m 
   20.00000p  901.3400m   37.9641m  896.9123m  899.4991m 
   21.00000p  900.2943m   37.6589m  895.8250m  898.6669m 
   22.00000p  899.2487m   37.3538m  894.7378m  897.8348m 
   23.00000p  898.2031m   37.0487m  893.6505m  897.0027m 
   24.00000p  896.9810m   37.6992m  892.1747m  895.9696m 
   25.00000p  895.7577m   38.3559m  890.6964m  894.9350m 
   26.00000p  894.5345m   39.0127m  889.2180m  893.9005m 
   27.00000p  893.3112m   39.6694m  887.7397m  892.8660m 
   28.00000p  892.0879m   40.3262m  886.2613m  891.8315m 
   29.00000p  890.6137m   42.8974m  884.3933m  890.5178m 
   30.00000p  888.7825m   48.1919m  881.9709m  888.8070m 
   31.00000p  886.9514m   53.4863m  879.5485m  887.0961m 
   32.00000p  885.1202m   58.7808m  877.1261m  885.3853m 
   33.00000p  883.2891m   64.0752m  874.7038m  883.6744m 
   34.00000p  881.4580m   69.3697m  872.2814m  881.9636m 
   35.00000p  879.6268m   74.6641m  869.8590m  880.2527m 
   36.00000p  877.1983m   84.3789m  866.8963m  877.8600m 
   37.00000p  874.5020m   96.0753m  863.6914m  875.1616m 
   38.00000p  871.8057m  107.7717m  860.4865m  872.4632m 
   39.00000p  869.1095m  119.4680m  857.2816m  869.7648m 
   40.00000p  866.4132m  131.1644m  854.0767m  867.0664m 
   41.00000p  863.7169m  142.8607m  850.8718m  864.3681m 
   42.00000p  861.0206m  154.5571m  847.6669m  861.6697m 
   43.00000p  858.3244m  166.2535m  844.4620m  858.9713m 
   44.00000p  855.3504m  180.7037m  841.1002m  855.9437m 
   45.00000p  852.1285m  197.6130m  837.5984m  852.6221m 
   46.00000p  848.9065m  214.5223m  834.0966m  849.3005m 
   47.00000p  845.6846m  231.4316m  830.5947m  845.9790m 
   48.00000p  842.4627m  248.3409m  827.0929m  842.6574m 
   49.00000p  839.2407m  265.2502m  823.5911m  839.3358m 
   50.00000p  836.0188m  282.1595m  820.0893m  836.0143m 
   51.00000p  833.4893m  299.0008m  819.9845m  833.1638m 
   52.00000p  831.0823m  315.5267m  819.7356m  830.4265m 
   53.00000p  829.0398m  331.0348m  819.3595m  828.0994m 
   54.00000p  827.5164m  345.0229m  819.0689m  826.4219m 
   55.00000p  825.9930m  359.0110m  818.7784m  824.7445m 
   56.00000p  824.4696m  372.9990m  818.4879m  823.0670m 
   57.00000p  823.6658m  387.8250m  818.7984m  822.2120m 
   58.00000p  823.3969m  403.2737m  819.5558m  821.9684m 
   59.00000p  823.1280m  418.7225m  820.3131m  821.7247m 
   60.00000p  822.8591m  434.1712m  821.0705m  821.4811m 
   61.00000p  822.5902m  449.6200m  821.8278m  821.2375m 
   62.00000p  822.3213m  465.0688m  822.5851m  820.9938m 
   63.00000p  822.0525m  480.5175m  823.3425m  820.7502m 
   64.00000p  822.2544m  497.1914m  824.4845m  820.9819m 
   65.00000p  823.3741m  516.2530m  826.3760m  822.1400m 
   66.00000p  824.4938m  535.3146m  828.2675m  823.2981m 
   67.00000p  825.6134m  554.3762m  830.1590m  824.4561m 
   68.00000p  826.7331m  573.4378m  832.0506m  825.6142m 
   69.00000p  827.8527m  592.4993m  833.9421m  826.7723m 
   70.00000p  828.9724m  611.5609m  835.8336m  827.9303m 
   71.00000p  830.0921m  630.6225m  837.7251m  829.0884m 
   72.00000p  832.2265m  644.7997m  840.1967m  831.2617m 
   73.00000p  834.3722m  658.9228m  842.6747m  833.4463m 
   74.00000p  836.5178m  673.0459m  845.1526m  835.6308m 
   75.00000p  838.6635m  687.1691m  847.6306m  837.8154m 
   76.00000p  840.8092m  701.2922m  850.1086m  839.9999m 
   77.00000p  842.9548m  715.4153m  852.5865m  842.1845m 
   78.00000p  845.1005m  729.5385m  855.0645m  844.3690m 
   79.00000p  847.2462m  743.6616m  857.5425m  846.5535m 
   80.00000p  849.3918m  757.7847m  860.0204m  848.7381m 
   81.00000p  851.5375m  771.9079m  862.4984m  850.9226m 
   82.00000p  853.6832m  786.0310m  864.9764m  853.1072m 
   83.00000p  855.9515m  797.7628m  867.4463m  855.4074m 
   84.00000p  858.4745m  804.5274m  869.8995m  857.9480m 
   85.00000p  860.9975m  811.2921m  872.3527m  860.4885m 
   86.00000p  863.5206m  818.0568m  874.8059m  863.0290m 
   87.00000p  866.0436m  824.8215m  877.2591m  865.5696m 
   88.00000p  868.5666m  831.5862m  879.7123m  868.1101m 
   89.00000p  871.0897m  838.3509m  882.1656m  870.6506m 
   90.00000p  873.6127m  845.1156m  884.6188m  873.1912m 
   91.00000p  876.1358m  851.8803m  887.0720m  875.7317m 
   92.00000p  878.3982m  856.7329m  889.1707m  878.0074m 
   93.00000p  880.4568m  860.0893m  890.9919m  880.0759m 
   94.00000p  882.5153m  863.4456m  892.8132m  882.1444m 
   95.00000p  884.5739m  866.8019m  894.6344m  884.2129m 
   96.00000p  886.6324m  870.1583m  896.4556m  886.2813m 
   97.00000p  888.6910m  873.5146m  898.2769m  888.3498m 
   98.00000p  890.7495m  876.8710m  900.0981m  890.4183m 
   99.00000p  892.8081m  880.2273m  901.9194m  892.4867m 
  100.00000p  894.8666m  883.5837m  903.7406m  894.5552m 
  101.00000p  896.9252m  886.9400m  905.5618m  896.6237m 
  102.00000p  898.9837m  890.2963m  907.3831m  898.6922m 
  103.00000p  901.0423m  893.6527m  909.2043m  900.7606m 
  104.00000p  903.1008m  897.0090m  911.0256m  902.8291m 
  105.00000p  905.1594m  900.3654m  912.8468m  904.8976m 
  106.00000p  907.2179m  903.7217m  914.6681m  906.9661m 
  107.00000p  909.2765m  907.0781m  916.4893m  909.0345m 
  108.00000p  910.9292m  909.3663m  917.9097m  910.6914m 
  109.00000p  912.2744m  910.8450m  919.0264m  912.0363m 
  110.00000p  913.6196m  912.3238m  920.1431m  913.3813m 
  111.00000p  914.9648m  913.8026m  921.2598m  914.7262m 
  112.00000p  916.3100m  915.2813m  922.3764m  916.0712m 
  113.00000p  917.6552m  916.7601m  923.4931m  917.4161m 
  114.00000p  919.0004m  918.2389m  924.6098m  918.7611m 
  115.00000p  920.3456m  919.7176m  925.7265m  920.1060m 
  116.00000p  921.6908m  921.1964m  926.8432m  921.4510m 
  117.00000p  923.0360m  922.6752m  927.9598m  922.7959m 
  118.00000p  924.3812m  924.1539m  929.0765m  924.1408m 
  119.00000p  925.7264m  925.6327m  930.1932m  925.4858m 
  120.00000p  926.5884m  926.5304m  930.9015m  926.3546m 
  121.00000p  927.3274m  927.2802m  931.5058m  927.1021m 
  122.00000p  928.0663m  928.0300m  932.1101m  927.8496m 
  123.00000p  928.8053m  928.7797m  932.7145m  928.5972m 
  124.00000p  929.5443m  929.5295m  933.3188m  929.3447m 
  125.00000p  930.2832m  930.2793m  933.9231m  930.0922m 
  126.00000p  931.0222m  931.0291m  934.5275m  930.8398m 
  127.00000p  931.7611m  931.7788m  935.1318m  931.5873m 
  128.00000p  932.5001m  932.5286m  935.7361m  932.3349m 
  129.00000p  933.2391m  933.2784m  936.3404m  933.0824m 
  130.00000p  933.9780m  934.0282m  936.9448m  933.8299m 
  131.00000p  934.7170m  934.7779m  937.5491m  934.5775m 
  132.00000p  935.4559m  935.5277m  938.1534m  935.3250m 
  133.00000p  936.1949m  936.2775m  938.7578m  936.0726m 
  134.00000p  936.9339m  937.0273m  939.3621m  936.8201m 
  135.00000p  937.6728m  937.7770m  939.9664m  937.5676m 
  136.00000p  938.4118m  938.5268m  940.5707m  938.3152m 
  137.00000p  939.1508m  939.2766m  941.1751m  939.0627m 
  138.00000p  939.8897m  940.0264m  941.7794m  939.8103m 
  139.00000p  940.2315m  940.3569m  942.0570m  940.1532m 
  140.00000p  940.5352m  940.6473m  942.3033m  940.4574m 
  141.00000p  940.8390m  940.9377m  942.5496m  940.7617m 
  142.00000p  941.1428m  941.2281m  942.7960m  941.0660m 
  143.00000p  941.4465m  941.5186m  943.0423m  941.3702m 
  144.00000p  941.7503m  941.8090m  943.2886m  941.6745m 
  145.00000p  942.0541m  942.0994m  943.5350m  941.9787m 
  146.00000p  942.3578m  942.3899m  943.7813m  942.2830m 
  147.00000p  942.6616m  942.6803m  944.0276m  942.5872m 
  148.00000p  942.9654m  942.9707m  944.2740m  942.8915m 
  149.00000p  943.2691m  943.2611m  944.5203m  943.1957m 
  150.00000p  943.5729m  943.5516m  944.7666m  943.5000m 
  151.00000p  943.8767m  943.8420m  945.0130m  943.8042m 
  152.00000p  944.1804m  944.1324m  945.2593m  944.1085m 
  153.00000p  944.4842m  944.4228m  945.5057m  944.4127m 
  154.00000p  944.7880m  944.7133m  945.7520m  944.7170m 
  155.00000p  945.0917m  945.0037m  945.9983m  945.0212m 
  156.00000p  945.3955m  945.2941m  946.2447m  945.3255m 
  157.00000p  945.6993m  945.5845m  946.4910m  945.6297m 
  158.00000p  946.0030m  945.8750m  946.7373m  945.9340m 
  159.00000p  946.3068m  946.1654m  946.9837m  946.2382m 
  160.00000p  946.4028m  946.2605m  947.0618m  946.3364m 
  161.00000p  946.4950m  946.3519m  947.1368m  946.4307m 
  162.00000p  946.5871m  946.4433m  947.2117m  946.5251m 
  163.00000p  946.6792m  946.5347m  947.2867m  946.6194m 
  164.00000p  946.7714m  946.6262m  947.3617m  946.7137m 
  165.00000p  946.8635m  946.7176m  947.4367m  946.8081m 
  166.00000p  946.9557m  946.8090m  947.5117m  946.9024m 
  167.00000p  947.0478m  946.9005m  947.5866m  946.9968m 
  168.00000p  947.1399m  946.9919m  947.6616m  947.0911m 
  169.00000p  947.2321m  947.0833m  947.7366m  947.1854m 
  170.00000p  947.3242m  947.1747m  947.8116m  947.2798m 
  171.00000p  947.4164m  947.2662m  947.8866m  947.3741m 
  172.00000p  947.5085m  947.3576m  947.9615m  947.4684m 
  173.00000p  947.6007m  947.4490m  948.0365m  947.5628m 
  174.00000p  947.6928m  947.5404m  948.1115m  947.6571m 
  175.00000p  947.7849m  947.6319m  948.1865m  947.7514m 
  176.00000p  947.8771m  947.7233m  948.2615m  947.8458m 
  177.00000p  947.9692m  947.8147m  948.3364m  947.9401m 
  178.00000p  948.0614m  947.9061m  948.4114m  948.0344m 
  179.00000p  948.1535m  947.9976m  948.4864m  948.1288m 
  180.00000p  948.2456m  948.0890m  948.5614m  948.2231m 
  181.00000p  948.3378m  948.1804m  948.6364m  948.3174m 
  182.00000p  948.4299m  948.2719m  948.7113m  948.4118m 
  183.00000p  948.5221m  948.3633m  948.7863m  948.5061m 
  184.00000p  948.6142m  948.4547m  948.8613m  948.6004m 
  185.00000p  948.7063m  948.5461m  948.9363m  948.6948m 
  186.00000p  948.7985m  948.6376m  949.0113m  948.7891m 
  187.00000p  948.8906m  948.7290m  949.0862m  948.8835m 
  188.00000p  948.9828m  948.8204m  949.1612m  948.9778m 
  189.00000p  949.0749m  948.9118m  949.2362m  949.0721m 
  190.00000p  949.1670m  949.0033m  949.3112m  949.1665m 
  191.00000p  949.2592m  949.0947m  949.3862m  949.2608m 
  192.00000p  949.2813m  949.1162m  949.4042m  949.2826m 
  193.00000p  949.2987m  949.1330m  949.4186m  949.2995m 
  194.00000p  949.3161m  949.1499m  949.4329m  949.3165m 
  195.00000p  949.3335m  949.1667m  949.4472m  949.3334m 
  196.00000p  949.3510m  949.1836m  949.4615m  949.3504m 
  197.00000p  949.3684m  949.2004m  949.4758m  949.3673m 
  198.00000p  949.3858m  949.2173m  949.4901m  949.3843m 
  199.00000p  949.4032m  949.2341m  949.5044m  949.4012m 
  200.00000p  949.4207m  949.2510m  949.5187m  949.4182m 
  201.00000p  949.4381m  949.2679m  949.5330m  949.4351m 
  202.00000p  949.4555m  949.2847m  949.5473m  949.4521m 
  203.00000p  949.4729m  949.3016m  949.5616m  949.4690m 
  204.00000p  949.4904m  949.3184m  949.5760m  949.4860m 
  205.00000p  949.5078m  949.3353m  949.5903m  949.5029m 
  206.00000p  949.5252m  949.3521m  949.6046m  949.5199m 
  207.00000p  949.5426m  949.3690m  949.6189m  949.5368m 
  208.00000p  949.5601m  949.3858m  949.6332m  949.5538m 
  209.00000p  949.5775m  949.4027m  949.6475m  949.5707m 
  210.00000p  949.5949m  949.4195m  949.6618m  949.5877m 
  211.00000p  949.6123m  949.4364m  949.6761m  949.6046m 
  212.00000p  949.6298m  949.4532m  949.6904m  949.6216m 
  213.00000p  949.6472m  949.4701m  949.7047m  949.6385m 
  214.00000p  949.6646m  949.4869m  949.7190m  949.6555m 
  215.00000p  949.6820m  949.5038m  949.7334m  949.6724m 
  216.00000p  949.6995m  949.5206m  949.7477m  949.6894m 
  217.00000p  949.7169m  949.5375m  949.7620m  949.7063m 
  218.00000p  949.7343m  949.5543m  949.7763m  949.7233m 
  219.00000p  949.7517m  949.5712m  949.7906m  949.7402m 
  220.00000p  949.7692m  949.5881m  949.8049m  949.7572m 
  221.00000p  949.7866m  949.6049m  949.8192m  949.7741m 
  222.00000p  949.8040m  949.6218m  949.8335m  949.7911m 
  223.00000p  949.8214m  949.6386m  949.8478m  949.8080m 
  224.00000p  949.8389m  949.6555m  949.8621m  949.8250m 
  225.00000p  949.8563m  949.6723m  949.8764m  949.8419m 
  226.00000p  949.8737m  949.6892m  949.8908m  949.8589m 
  227.00000p  949.8911m  949.7060m  949.9051m  949.8758m 
  228.00000p  949.8935m  949.7106m  949.9070m  949.8793m 
  229.00000p  949.8958m  949.7151m  949.9090m  949.8827m 
  230.00000p  949.8981m  949.7197m  949.9109m  949.8862m 
  231.00000p  949.9004m  949.7242m  949.9129m  949.8896m 
  232.00000p  949.9028m  949.7288m  949.9148m  949.8931m 
  233.00000p  949.9051m  949.7333m  949.9168m  949.8965m 
  234.00000p  949.9074m  949.7378m  949.9187m  949.9000m 
  235.00000p  949.9097m  949.7424m  949.9207m  949.9034m 
  236.00000p  949.9121m  949.7469m  949.9227m  949.9069m 
  237.00000p  949.9144m  949.7515m  949.9246m  949.9103m 
  238.00000p  949.9167m  949.7560m  949.9266m  949.9138m 
  239.00000p  949.9190m  949.7606m  949.9285m  949.9172m 
  240.00000p  949.9214m  949.7651m  949.9305m  949.9207m 
  241.00000p  949.9237m  949.7696m  949.9324m  949.9241m 
  242.00000p  949.9260m  949.7742m  949.9344m  949.9276m 
  243.00000p  949.9283m  949.7787m  949.9363m  949.9310m 
  244.00000p  949.9307m  949.7833m  949.9383m  949.9344m 
  245.00000p  949.9330m  949.7878m  949.9402m  949.9379m 
  246.00000p  949.9353m  949.7924m  949.9422m  949.9413m 
  247.00000p  949.9376m  949.7969m  949.9441m  949.9448m 
  248.00000p  949.9400m  949.8014m  949.9461m  949.9482m 
  249.00000p  950.1802m  950.0571m  950.3300m  950.1645m 
  250.00000p  951.0321m  950.9587m  951.6962m  950.9280m 
  251.00000p  951.8839m  951.8603m  953.0624m  951.6916m 
  252.00000p  952.7358m  952.7619m  954.4286m  952.4551m 
  253.00000p  953.5877m  953.6634m  955.7948m  953.2187m 
  254.00000p  954.4396m  954.5650m  957.1611m  953.9822m 
  255.00000p  955.2922m  955.4673m  958.5177m  954.7482m 
  256.00000p  956.1680m  956.3923m  959.5643m  955.5927m 
  257.00000p  957.0442m  957.3177m  960.6076m  956.4387m 
  258.00000p  957.9383m  958.2556m  961.4896m  957.3604m 
  259.00000p  958.8324m  959.1934m  962.3717m  958.2820m 
  260.00000p  959.7265m  960.1313m  963.2538m  959.2037m 
  261.00000p  960.6206m  961.0692m  964.1359m  960.1253m 
  262.00000p  961.5147m  962.0071m  965.0179m  961.0470m 
  263.00000p  962.4088m  962.9450m  965.9000m  961.9686m 
  264.00000p  963.1392m  963.8070m  966.5694m  962.5698m 
  265.00000p  963.7561m  964.6163m  967.0914m  962.9489m 
  266.00000p  964.3731m  965.4257m  967.6134m  963.3280m 
  267.00000p  964.9901m  966.2351m  968.1354m  963.7071m 
  268.00000p  965.6070m  967.0445m  968.6574m  964.0862m 
  269.00000p  966.2240m  967.8539m  969.1794m  964.4653m 
  270.00000p  966.8409m  968.6632m  969.7013m  964.8444m 
  271.00000p  967.4579m  969.4726m  970.2233m  965.2235m 
  272.00000p  968.0749m  970.2820m  970.7453m  965.6026m 
  273.00000p  968.6918m  971.0914m  971.2673m  965.9817m 
  274.00000p  969.3088m  971.9007m  971.7893m  966.3608m 
  275.00000p  969.9257m  972.7101m  972.3113m  966.7398m 
